time	V(in)	V(out1)	V(out2)
0.000000000000000e+00	0.000000e+00	4.723327e+00	4.973475e+00
1.474455773619576e-04	0.000000e+00	4.723327e+00	4.973475e+00
1.917703110622510e-04	6.353969e-03	4.723327e+00	4.973475e+00
2.155697308907250e-04	1.667670e-02	4.723327e+00	4.973475e+00
2.253998233181434e-04	1.953125e-02	4.723327e+00	4.973475e+00
3.662656137605464e-04	1.953125e-02	4.723327e+00	4.973475e+00
5.062995267534532e-04	2.309088e-02	4.723327e+00	4.973475e+00
7.504401517534532e-04	3.906250e-02	4.723327e+00	4.973475e+00
9.945807767534533e-04	5.371094e-02	4.723327e+00	4.973475e+00
1.727002651753453e-03	8.300781e-02	4.723327e+00	4.973475e+00
2.215283901753453e-03	1.123047e-01	4.723327e+00	4.973475e+00
2.459424526753453e-03	1.220703e-01	4.723327e+00	4.973475e+00
2.947705776753453e-03	1.513672e-01	4.723327e+00	4.973475e+00
3.680127651753453e-03	1.806641e-01	4.723327e+00	4.973475e+00
4.168408901753453e-03	2.099609e-01	4.723327e+00	4.973475e+00
4.412549526753453e-03	2.197266e-01	4.723327e+00	4.973475e+00
4.900830776753453e-03	2.490234e-01	4.723327e+00	4.973475e+00
5.633252651753453e-03	2.783203e-01	4.723327e+00	4.973475e+00
6.121533901753453e-03	3.076172e-01	4.723327e+00	4.973475e+00
6.365674526753453e-03	3.173828e-01	4.723327e+00	4.973475e+00
6.853955776753453e-03	3.466797e-01	4.723327e+00	4.973475e+00
7.586377651753453e-03	3.759766e-01	4.723327e+00	4.973475e+00
8.074658901753453e-03	4.052734e-01	4.723327e+00	4.973475e+00
8.318799526753453e-03	4.150391e-01	4.723327e+00	4.973475e+00
8.807080776753453e-03	4.443359e-01	4.723327e+00	4.973475e+00
9.539502651753453e-03	4.736328e-01	4.723327e+00	4.973475e+00
1.002778390175345e-02	5.029297e-01	4.723327e+00	4.973475e+00
1.027192452675345e-02	5.126953e-01	4.723327e+00	4.973475e+00
1.076020577675345e-02	5.419922e-01	4.723327e+00	4.973475e+00
1.149262765175345e-02	5.712891e-01	4.723327e+00	4.973475e+00
1.198090890175345e-02	6.005859e-01	4.723327e+00	4.973475e+00
1.222504952675345e-02	6.103516e-01	4.723327e+00	4.973475e+00
1.271333077675345e-02	6.396484e-01	4.723327e+00	4.973475e+00
1.344575265175345e-02	6.689453e-01	4.723327e+00	4.973475e+00
1.393403390175345e-02	6.982422e-01	4.723327e+00	4.973475e+00
1.417817452675345e-02	7.080078e-01	4.723327e+00	4.973475e+00
1.466645577675345e-02	7.373047e-01	4.723327e+00	4.973475e+00
1.539887765175345e-02	7.666016e-01	4.723327e+00	4.973475e+00
1.588715890175346e-02	7.958984e-01	4.723327e+00	4.973475e+00
1.613129952675346e-02	8.056641e-01	4.723327e+00	4.973475e+00
1.661958077675346e-02	8.349609e-01	4.723327e+00	4.973475e+00
1.735200265175346e-02	8.642578e-01	4.723327e+00	4.973475e+00
1.784028390175346e-02	8.935547e-01	4.723327e+00	4.973475e+00
1.808442452675346e-02	9.033203e-01	4.723327e+00	4.973475e+00
1.857270577675346e-02	9.326172e-01	4.723327e+00	4.973475e+00
1.930512765175346e-02	9.619141e-01	4.723327e+00	4.973475e+00
1.979340890175346e-02	9.912109e-01	4.723327e+00	4.973475e+00
2.028169015175346e-02	1.015625e+00	4.723327e+00	4.973475e+00
2.076997140175346e-02	1.040039e+00	4.723327e+00	4.973475e+00
2.125825265175346e-02	1.059570e+00	4.723327e+00	4.973475e+00
2.174653390175346e-02	1.088867e+00	4.723327e+00	4.973475e+00
2.223481515175346e-02	1.113281e+00	4.723327e+00	4.973475e+00
2.272309640175346e-02	1.137695e+00	4.723327e+00	4.973475e+00
2.321137765175346e-02	1.157227e+00	4.723327e+00	4.973475e+00
2.369965890175346e-02	1.186523e+00	4.723327e+00	4.973475e+00
2.418794015175346e-02	1.210938e+00	4.723327e+00	4.973475e+00
2.467622140175346e-02	1.235352e+00	4.723327e+00	4.973475e+00
2.516450265175346e-02	1.254883e+00	4.723327e+00	4.973475e+00
2.565278390175346e-02	1.284180e+00	4.723327e+00	4.973475e+00
2.614106515175346e-02	1.308594e+00	4.723327e+00	4.973475e+00
2.687348702675346e-02	1.342773e+00	4.723327e+00	4.973475e+00
2.715250488389631e-02	1.357670e+00	4.723327e+00	4.973475e+00
2.743152274103917e-02	1.372252e+00	4.723327e+00	4.973475e+00
2.771054059818203e-02	1.386518e+00	4.723327e+00	4.973475e+00
2.798955845532488e-02	1.400469e+00	4.723327e+00	4.973475e+00
2.826857631246774e-02	1.414105e+00	4.723327e+00	4.973475e+00
2.854759416961060e-02	1.427425e+00	4.723327e+00	4.973475e+00
2.882661202675346e-02	1.440430e+00	4.723327e+00	4.973475e+00
2.917538434818203e-02	1.458738e+00	4.723327e+00	4.973475e+00
2.952415666961060e-02	1.476757e+00	4.723327e+00	4.973475e+00
2.987292899103917e-02	1.494486e+00	4.723327e+00	4.973475e+00
3.022170131246774e-02	1.511924e+00	4.723327e+00	4.973475e+00
3.057047363389631e-02	1.529073e+00	4.723327e+00	4.973475e+00
3.091924595532488e-02	1.545931e+00	4.723327e+00	4.973475e+00
3.126801827675346e-02	1.562500e+00	4.723327e+00	4.973475e+00
3.154703613389631e-02	1.577537e+00	4.723327e+00	4.973475e+00
3.182605399103917e-02	1.592212e+00	4.723327e+00	4.973475e+00
3.210507184818202e-02	1.606525e+00	4.723327e+00	4.973475e+00
3.238408970532489e-02	1.620476e+00	4.723327e+00	4.973475e+00
3.266310756246774e-02	1.634065e+00	4.723327e+00	4.973475e+00
3.294212541961060e-02	1.647292e+00	4.723327e+00	4.973475e+00
3.322114327675346e-02	1.660156e+00	4.723327e+00	4.973475e+00
3.350016113389631e-02	1.675193e+00	4.723327e+00	4.973475e+00
3.377917899103917e-02	1.689869e+00	4.723327e+00	4.973475e+00
3.405819684818202e-02	1.704182e+00	4.723327e+00	4.973475e+00
3.433721470532489e-02	1.718132e+00	4.723327e+00	4.973475e+00
3.461623256246774e-02	1.731721e+00	4.723327e+00	4.973475e+00
3.489525041961060e-02	1.744948e+00	4.723327e+00	4.973475e+00
3.517426827675346e-02	1.757812e+00	4.723327e+00	4.973475e+00
3.555791783032489e-02	1.777344e+00	4.723327e+00	4.973475e+00
3.594156738389631e-02	1.796875e+00	4.723327e+00	4.973475e+00
3.632521693746774e-02	1.816406e+00	4.723327e+00	4.973475e+00
3.670886649103917e-02	1.835938e+00	4.723327e+00	4.973475e+00
3.709251604461060e-02	1.855469e+00	4.723327e+00	4.973475e+00
3.747616559818203e-02	1.875000e+00	4.723327e+00	4.973475e+00
3.785981515175346e-02	1.894531e+00	4.723327e+00	4.973475e+00
3.852248256246774e-02	1.927311e+00	4.723327e+00	4.973475e+00
3.918514997318202e-02	1.960092e+00	4.723327e+00	4.973475e+00
3.984781738389631e-02	1.992875e+00	4.723327e+00	4.973475e+00
4.051048479461060e-02	2.025659e+00	4.723327e+00	4.973475e+00
4.117315220532489e-02	2.058445e+00	4.723327e+00	4.973475e+00
4.183581961603917e-02	2.091234e+00	4.723327e+00	4.973475e+00
4.249848702675346e-02	2.124023e+00	4.723327e+00	4.973475e+00
4.316115443746774e-02	2.157521e+00	4.723327e+00	4.973475e+00
4.382382184818202e-02	2.191014e+00	4.723327e+00	4.973475e+00
4.448648925889631e-02	2.224501e+00	4.723327e+00	4.973475e+00
4.514915666961060e-02	2.257983e+00	4.723327e+00	4.973475e+00
4.581182408032489e-02	2.291460e+00	4.723327e+00	4.973475e+00
4.647449149103917e-02	2.324932e+00	4.723327e+00	4.973475e+00
4.713715890175346e-02	2.358398e+00	4.723327e+00	4.973475e+00
4.738129952675346e-02	2.363281e+00	4.723327e+00	4.973475e+00
4.746092015630248e-02	2.363281e+00	4.723327e+00	4.973475e+00
4.746093505746368e-02	2.371094e+00	4.723327e+00	4.973475e+00
4.746093878275397e-02	2.380859e+00	4.723327e+00	4.973475e+00
4.746093971407655e-02	2.382812e+00	4.723327e+00	4.973475e+00
4.746094041256848e-02	2.382812e+00	4.723327e+00	4.973475e+00
4.746094134389105e-02	2.382812e+00	4.723327e+00	4.973475e+00
4.746094183911403e-02	2.382812e+00	4.723327e+00	4.973475e+00
4.746094271131323e-02	2.382812e+00	4.626347e+00	4.973475e+00
4.746094370175918e-02	2.382812e+00	4.205060e+00	4.973475e+00
4.746094470175918e-02	2.382812e+00	3.472689e+00	4.973475e+00
4.746094570175918e-02	2.382812e+00	2.636266e+00	4.973475e+00
4.746094670175918e-02	2.382812e+00	1.799844e+00	4.973475e+00
4.746094770175917e-02	2.382812e+00	9.808636e-01	4.973475e+00
4.746094870175917e-02	2.382812e+00	4.011713e-01	4.973475e+00
4.746095070175917e-02	2.382812e+00	2.434238e-02	4.973475e+00
4.746095470175917e-02	2.382812e+00	-7.260505e-03	4.973475e+00
4.746096270175917e-02	2.382812e+00	2.825182e-03	4.973475e+00
4.746097870175917e-02	2.382812e+00	-1.247580e-03	4.973475e+00
4.746101070175917e-02	2.382812e+00	5.863458e-04	4.973475e+00
4.746107470175917e-02	2.382812e+00	-2.842458e-04	4.973475e+00
4.746120270175917e-02	2.382812e+00	1.399430e-04	4.973475e+00
4.746145870175917e-02	2.382812e+00	-6.943693e-05	4.973475e+00
4.746197070175917e-02	2.382812e+00	3.458187e-05	4.973475e+00
4.746299470175917e-02	2.382812e+00	-1.725803e-05	4.973475e+00
4.746504270175917e-02	2.382812e+00	8.622184e-06	4.973475e+00
4.746913870175917e-02	2.382812e+00	-4.307678e-06	4.973475e+00
4.774955818390203e-02	2.391558e+00	-2.223159e-06	4.973475e+00
4.802997766604489e-02	2.401806e+00	-6.283960e-07	4.973475e+00
4.831039714818774e-02	2.413556e+00	4.766099e-07	4.973475e+00
4.859081663033060e-02	2.426810e+00	1.091859e-06	4.973475e+00
4.887123611247346e-02	2.441566e+00	1.217352e-06	4.973475e+00
4.915165559461632e-02	2.457824e+00	8.530888e-07	4.973475e+00
4.943207507675917e-02	2.475586e+00	-9.313226e-10	4.973475e+00
4.967621570175917e-02	2.480469e+00	-2.776361e-02	4.973475e+00
4.970673327988417e-02	2.480469e+00	-2.082272e-02	4.973475e+00
4.976776843613417e-02	2.483724e+00	-2.671641e-12	4.973475e+00
4.993122392988236e-02	2.500000e+00	0.000000e+00	4.973475e+00
4.993307726180585e-02	2.500000e+00	0.000000e+00	4.973475e+00
4.993493245637448e-02	2.500000e+00	0.000000e+00	4.973475e+00
4.993678811660440e-02	2.500000e+00	0.000000e+00	4.973475e+00
4.993864144852789e-02	2.500000e+00	0.000000e+00	4.973475e+00
4.994049664309652e-02	2.500000e+00	0.000000e+00	4.973475e+00
4.994234904369743e-02	2.500000e+00	0.000000e+00	4.973475e+00
4.994420563524993e-02	2.500000e+00	0.000000e+00	4.973475e+00
4.994606082981856e-02	2.500000e+00	0.000000e+00	4.973475e+00
4.994791323041947e-02	2.500000e+00	0.000000e+00	4.973475e+00
4.994976656234296e-02	2.500000e+00	0.000000e+00	4.973475e+00
4.995162175691159e-02	2.500000e+00	0.000000e+00	4.973475e+00
4.995347741714151e-02	2.500000e+00	0.000000e+00	4.973475e+00
4.995533074906500e-02	2.500000e+00	0.000000e+00	4.973475e+00
4.995718594363363e-02	2.500000e+00	0.000000e+00	4.973475e+00
4.995903834423454e-02	2.500000e+00	0.000000e+00	4.973475e+00
4.996089493578704e-02	2.500000e+00	0.000000e+00	4.973475e+00
4.996275013035567e-02	2.500000e+00	0.000000e+00	4.973475e+00
4.996460253095658e-02	2.500000e+00	0.000000e+00	4.973475e+00
4.996645586288007e-02	2.500000e+00	0.000000e+00	4.973475e+00
4.996831105744870e-02	2.500000e+00	0.000000e+00	4.973475e+00
4.997016671767862e-02	2.500000e+00	0.000000e+00	4.973475e+00
4.997202004960211e-02	2.500000e+00	0.000000e+00	4.973475e+00
4.997387524417074e-02	2.500000e+00	0.000000e+00	4.973475e+00
4.997572764477165e-02	2.500000e+00	0.000000e+00	4.973475e+00
4.997758423632415e-02	2.500000e+00	0.000000e+00	4.973475e+00
4.997943943089278e-02	2.500000e+00	0.000000e+00	4.973475e+00
4.998129183149369e-02	2.500000e+00	0.000000e+00	4.973475e+00
4.998314516341718e-02	2.500000e+00	0.000000e+00	4.973475e+00
4.998500035798581e-02	2.500000e+00	0.000000e+00	4.973475e+00
4.998685601821573e-02	2.500000e+00	0.000000e+00	4.973475e+00
4.998870935013922e-02	2.500000e+00	0.000000e+00	4.973475e+00
4.999056454470785e-02	2.500000e+00	0.000000e+00	4.973475e+00
4.999241694530876e-02	2.500000e+00	0.000000e+00	4.973475e+00
4.999427353686126e-02	2.500000e+00	0.000000e+00	4.973475e+00
4.999612873142989e-02	2.500000e+00	0.000000e+00	4.973475e+00
4.999798113203080e-02	2.500000e+00	0.000000e+00	4.973475e+00
4.999983446395428e-02	2.500000e+00	0.000000e+00	4.973475e+00
5.000168965852292e-02	2.500000e+00	0.000000e+00	4.973475e+00
5.000354531875284e-02	2.500000e+00	0.000000e+00	4.973475e+00
5.000539865067632e-02	2.500000e+00	0.000000e+00	4.973475e+00
5.000725384524496e-02	2.500000e+00	0.000000e+00	4.973475e+00
5.000910624584587e-02	2.500000e+00	0.000000e+00	4.973475e+00
5.001096283739837e-02	2.500000e+00	0.000000e+00	4.973475e+00
5.001281803196700e-02	2.500000e+00	0.000000e+00	4.973475e+00
5.001467043256791e-02	2.500000e+00	0.000000e+00	4.973475e+00
5.001652376449139e-02	2.500000e+00	0.000000e+00	4.973475e+00
5.001837895906003e-02	2.500000e+00	0.000000e+00	4.973475e+00
5.002023461928995e-02	2.500000e+00	0.000000e+00	4.973475e+00
5.002208795121343e-02	2.500000e+00	0.000000e+00	4.973475e+00
5.002394314578207e-02	2.500000e+00	0.000000e+00	4.973475e+00
5.002579554638298e-02	2.500000e+00	0.000000e+00	4.973475e+00
5.002765213793547e-02	2.500000e+00	0.000000e+00	4.973475e+00
5.002950733250411e-02	2.500000e+00	0.000000e+00	4.973475e+00
5.003135973310502e-02	2.500000e+00	0.000000e+00	4.973475e+00
5.003321306502850e-02	2.500000e+00	0.000000e+00	4.973475e+00
5.003506825959714e-02	2.500000e+00	0.000000e+00	4.973475e+00
5.003692391982706e-02	2.500000e+00	0.000000e+00	4.973475e+00
5.003877725175054e-02	2.500000e+00	0.000000e+00	4.973475e+00
5.004063244631918e-02	2.500000e+00	0.000000e+00	4.973475e+00
5.004248484692009e-02	2.500000e+00	0.000000e+00	4.973475e+00
5.004434143847258e-02	2.500000e+00	0.000000e+00	4.973475e+00
5.004619663304122e-02	2.500000e+00	0.000000e+00	4.973475e+00
5.004804903364213e-02	2.500000e+00	0.000000e+00	4.973475e+00
5.004990236556561e-02	2.500000e+00	0.000000e+00	4.973475e+00
5.005175756013425e-02	2.500000e+00	0.000000e+00	4.973475e+00
5.005361322036417e-02	2.500000e+00	0.000000e+00	4.973475e+00
5.005546655228765e-02	2.500000e+00	0.000000e+00	4.973475e+00
5.005732174685629e-02	2.500000e+00	0.000000e+00	4.973475e+00
5.005917414745720e-02	2.500000e+00	0.000000e+00	4.973475e+00
5.006103073900969e-02	2.500000e+00	0.000000e+00	4.973475e+00
5.006288593357833e-02	2.500000e+00	0.000000e+00	4.973475e+00
5.006473833417924e-02	2.500000e+00	0.000000e+00	4.973475e+00
5.006659166610272e-02	2.500000e+00	0.000000e+00	4.973475e+00
5.006844686067136e-02	2.500000e+00	0.000000e+00	4.973475e+00
5.007030252090128e-02	2.500000e+00	0.000000e+00	4.973475e+00
5.007215585282476e-02	2.500000e+00	0.000000e+00	4.973475e+00
5.007401104739340e-02	2.500000e+00	0.000000e+00	4.973475e+00
5.007586344799431e-02	2.500000e+00	0.000000e+00	4.973475e+00
5.007772003954680e-02	2.500000e+00	0.000000e+00	4.973475e+00
5.007957523411544e-02	2.500000e+00	0.000000e+00	4.973475e+00
5.008142763471635e-02	2.500000e+00	0.000000e+00	4.973475e+00
5.008328096663983e-02	2.500000e+00	0.000000e+00	4.973475e+00
5.008513616120847e-02	2.500000e+00	0.000000e+00	4.973475e+00
5.008699182143839e-02	2.500000e+00	0.000000e+00	4.973475e+00
5.008884515336187e-02	2.500000e+00	0.000000e+00	4.973475e+00
5.009070034793051e-02	2.500000e+00	0.000000e+00	4.973475e+00
5.009255274853142e-02	2.500000e+00	0.000000e+00	4.973475e+00
5.009440934008391e-02	2.500000e+00	0.000000e+00	4.973475e+00
5.009626453465255e-02	2.500000e+00	0.000000e+00	4.973475e+00
5.009811693525346e-02	2.500000e+00	0.000000e+00	4.973475e+00
5.009997026717694e-02	2.500000e+00	0.000000e+00	4.973475e+00
5.010182546174557e-02	2.500000e+00	0.000000e+00	4.973475e+00
5.010368112197550e-02	2.500000e+00	0.000000e+00	4.973475e+00
5.010553445389898e-02	2.500000e+00	0.000000e+00	4.973475e+00
5.010738964846762e-02	2.500000e+00	0.000000e+00	4.973475e+00
5.010924204906853e-02	2.500000e+00	0.000000e+00	4.973475e+00
5.011109864062102e-02	2.500000e+00	0.000000e+00	4.973475e+00
5.011295383518966e-02	2.500000e+00	0.000000e+00	4.973475e+00
5.011480623579057e-02	2.500000e+00	0.000000e+00	4.973475e+00
5.011665956771405e-02	2.500000e+00	0.000000e+00	4.973475e+00
5.011851476228268e-02	2.500000e+00	0.000000e+00	4.973475e+00
5.012037042251261e-02	2.500000e+00	0.000000e+00	4.973475e+00
5.012222375443609e-02	2.500000e+00	0.000000e+00	4.973475e+00
5.012407894900472e-02	2.500000e+00	0.000000e+00	4.973475e+00
5.012593134960563e-02	2.500000e+00	0.000000e+00	4.973475e+00
5.012778794115813e-02	2.500000e+00	0.000000e+00	4.973475e+00
5.012964313572676e-02	2.500000e+00	0.000000e+00	4.973475e+00
5.013149553632767e-02	2.500000e+00	0.000000e+00	4.973475e+00
5.013334886825116e-02	2.500000e+00	0.000000e+00	4.973475e+00
5.013520406281979e-02	2.500000e+00	0.000000e+00	4.973475e+00
5.013705972304972e-02	2.500000e+00	0.000000e+00	4.973475e+00
5.013891305497320e-02	2.500000e+00	0.000000e+00	4.973475e+00
5.014076824954183e-02	2.500000e+00	0.000000e+00	4.973475e+00
5.014262065014274e-02	2.500000e+00	0.000000e+00	4.973475e+00
5.014447724169524e-02	2.500000e+00	0.000000e+00	4.973475e+00
5.014633243626387e-02	2.500000e+00	0.000000e+00	4.973475e+00
5.014818483686478e-02	2.500000e+00	0.000000e+00	4.973475e+00
5.015003816878827e-02	2.500000e+00	0.000000e+00	4.973475e+00
5.015189336335690e-02	2.500000e+00	0.000000e+00	4.973475e+00
5.015374902358682e-02	2.500000e+00	0.000000e+00	4.973475e+00
5.015560235551031e-02	2.500000e+00	0.000000e+00	4.973475e+00
5.015745755007894e-02	2.500000e+00	0.000000e+00	4.973475e+00
5.015930995067985e-02	2.500000e+00	0.000000e+00	4.973475e+00
5.016116654223235e-02	2.500000e+00	0.000000e+00	4.973475e+00
5.016302173680098e-02	2.500000e+00	0.000000e+00	4.973475e+00
5.016487413740189e-02	2.500000e+00	0.000000e+00	4.973475e+00
5.016672746932538e-02	2.500000e+00	0.000000e+00	4.973475e+00
5.016858266389401e-02	2.500000e+00	0.000000e+00	4.973475e+00
5.017043832412393e-02	2.500000e+00	0.000000e+00	4.973475e+00
5.017229165604742e-02	2.500000e+00	0.000000e+00	4.973475e+00
5.017414685061605e-02	2.500000e+00	0.000000e+00	4.973475e+00
5.017599925121696e-02	2.500000e+00	0.000000e+00	4.973475e+00
5.017785584276946e-02	2.500000e+00	0.000000e+00	4.973475e+00
5.017971103733809e-02	2.500000e+00	0.000000e+00	4.973475e+00
5.018156343793900e-02	2.500000e+00	0.000000e+00	4.973475e+00
5.018341676986249e-02	2.500000e+00	0.000000e+00	4.973475e+00
5.018527196443112e-02	2.500000e+00	0.000000e+00	4.973475e+00
5.018712762466104e-02	2.500000e+00	0.000000e+00	4.973475e+00
5.018898095658453e-02	2.500000e+00	0.000000e+00	4.973475e+00
5.019083615115316e-02	2.500000e+00	0.000000e+00	4.973475e+00
5.019268855175407e-02	2.500000e+00	0.000000e+00	4.973475e+00
5.019454514330657e-02	2.500000e+00	0.000000e+00	4.973475e+00
5.019531115612419e-02	2.500000e+00	0.000000e+00	4.973475e+00
5.019531162178548e-02	2.503255e+00	0.000000e+00	4.973475e+00
5.019531255310805e-02	2.516929e+00	0.000000e+00	4.973475e+00
5.019531289146828e-02	2.519531e+00	0.000000e+00	4.973475e+00
5.019531371642932e-02	2.519531e+00	0.000000e+00	4.973475e+00
5.019531416115108e-02	2.519531e+00	0.000000e+00	4.973475e+00
5.019531445763226e-02	2.519531e+00	0.000000e+00	4.938915e+00
5.019531475411343e-02	2.519531e+00	0.000000e+00	4.789157e+00
5.019531534707578e-02	2.519531e+00	0.000000e+00	4.282283e+00
5.019531634707577e-02	2.519531e+00	0.000000e+00	3.349757e+00
5.019531734707577e-02	2.519531e+00	0.000000e+00	2.417230e+00
5.019531834707577e-02	2.519531e+00	0.000000e+00	1.484704e+00
5.019531934707577e-02	2.519531e+00	0.000000e+00	7.576444e-01
5.019532134707577e-02	2.519531e+00	0.000000e+00	1.542278e-01
5.019532534707577e-02	2.519531e+00	0.000000e+00	-5.004594e-03
5.019533334707577e-02	2.519531e+00	0.000000e+00	1.975249e-03
5.019534934707577e-02	2.519531e+00	0.000000e+00	-8.783371e-04
5.019538134707577e-02	2.519531e+00	0.000000e+00	4.142305e-04
5.019544534707577e-02	2.519531e+00	0.000000e+00	-2.011557e-04
5.019557334707577e-02	2.519531e+00	0.000000e+00	9.912128e-05
5.019582934707577e-02	2.519531e+00	0.000000e+00	-4.920115e-05
5.019634134707577e-02	2.519531e+00	0.000000e+00	2.450993e-05
5.019736534707577e-02	2.519531e+00	0.000000e+00	-1.223323e-05
5.019941334707577e-02	2.519531e+00	0.000000e+00	6.111339e-06
5.051529520421863e-02	2.530594e+00	0.000000e+00	3.182794e-06
5.083117706136148e-02	2.542852e+00	0.000000e+00	9.394152e-07
5.114705891850434e-02	2.556306e+00	0.000000e+00	-6.187985e-07
5.146294077564720e-02	2.570954e+00	0.000000e+00	-1.491847e-06
5.177882263279006e-02	2.586798e+00	0.000000e+00	-1.679730e-06
5.209470448993292e-02	2.603836e+00	0.000000e+00	-1.182448e-06
5.241058634707577e-02	2.622070e+00	0.000000e+00	0.000000e+00
9.977386759707577e-02	4.985538e+00	0.000000e+00	-8.757887e-09
1.000000000000000e-01	5.000000e+00	0.000000e+00	4.684804e-02
1.000000006901013e-01	1.666667e+00	0.000000e+00	2.118154e-02
1.000000020703040e-01	0.000000e+00	0.000000e+00	-3.413241e-03
1.000000022826033e-01	0.000000e+00	0.000000e+00	-3.595785e-03
1.000000027072018e-01	0.000000e+00	0.000000e+00	-1.241142e-03
