time	V(input_signal)	V(v_out)	I(Speaker)
0.000000000000000e+00	2.500000e+00	2.071623e+00	2.589529e-01
2.929687742403431e-11	2.500000e+00	2.071623e+00	2.589529e-01
1.171875096961372e-10	2.500001e+00	2.071623e+00	2.589529e-01
2.343750193922745e-10	2.500003e+00	2.071623e+00	2.589529e-01
4.687500387845489e-10	2.500006e+00	2.071623e+00	2.589529e-01
9.375000775690978e-10	2.500012e+00	2.071623e+00	2.589529e-01
1.875000155138196e-09	2.500024e+00	2.071624e+00	2.589529e-01
1.002486161918374e-08	2.500126e+00	2.071624e+00	2.589530e-01
1.322980892460308e-08	2.500166e+00	2.071624e+00	2.589530e-01
1.679791875698609e-08	2.500211e+00	2.071624e+00	2.589530e-01
1.768994621508184e-08	2.500222e+00	2.071624e+00	2.589530e-01
1.947400113127334e-08	2.500245e+00	2.071624e+00	2.589530e-01
2.457130089182049e-08	2.500309e+00	2.071624e+00	2.589530e-01
2.966860065236764e-08	2.500373e+00	2.071624e+00	2.589531e-01
3.476590041291479e-08	2.500437e+00	2.071625e+00	2.589531e-01
3.986320017346194e-08	2.500501e+00	2.071625e+00	2.589531e-01
4.496049993400909e-08	2.500565e+00	2.071624e+00	2.589531e-01
5.005779969455624e-08	2.500629e+00	2.071624e+00	2.589530e-01
5.515509945510338e-08	2.500693e+00	2.071624e+00	2.589530e-01
5.688544729185323e-08	2.500715e+00	2.071624e+00	2.589530e-01
5.775062121022815e-08	2.500726e+00	2.071624e+00	2.589530e-01
6.121131688372784e-08	2.500769e+00	2.071624e+00	2.589530e-01
7.561302130824328e-08	2.500950e+00	2.071625e+00	2.589531e-01
7.999460085273995e-08	2.501005e+00	2.071624e+00	2.589530e-01
8.437618039723663e-08	2.501060e+00	2.071624e+00	2.589530e-01
8.875775994173330e-08	2.501115e+00	2.071624e+00	2.589530e-01
9.313933948622998e-08	2.501170e+00	2.071623e+00	2.589529e-01
9.752091903072665e-08	2.501225e+00	2.071623e+00	2.589529e-01
1.019024985752233e-07	2.501280e+00	2.071623e+00	2.589529e-01
1.062840781197200e-07	2.501336e+00	2.071623e+00	2.589528e-01
1.111776390597833e-07	2.501397e+00	2.071621e+00	2.589527e-01
1.129203986348311e-07	2.501419e+00	2.071622e+00	2.589527e-01
1.202547744475563e-07	2.501511e+00	2.071625e+00	2.589531e-01
1.232552341252355e-07	2.501549e+00	2.071625e+00	2.589532e-01
1.310428609734393e-07	2.501647e+00	2.071624e+00	2.589530e-01
1.432824266880279e-07	2.501801e+00	2.071623e+00	2.589529e-01
1.514245182753719e-07	2.501903e+00	2.071624e+00	2.589530e-01
2.233403327667009e-07	2.502807e+00	2.071625e+00	2.589531e-01
2.287613760253843e-07	2.502875e+00	2.071625e+00	2.589531e-01
2.392866334152703e-07	2.503007e+00	2.071624e+00	2.589530e-01
2.462889081022987e-07	2.503095e+00	2.071624e+00	2.589530e-01
2.531009373311229e-07	2.503181e+00	2.071623e+00	2.589529e-01
2.602490940889509e-07	2.503270e+00	2.071623e+00	2.589529e-01
2.630252415883684e-07	2.503305e+00	2.071623e+00	2.589529e-01
2.718909381299896e-07	2.503417e+00	2.071622e+00	2.589528e-01
2.753042723250694e-07	2.503460e+00	2.071622e+00	2.589527e-01
2.795646990706326e-07	2.503513e+00	2.071622e+00	2.589527e-01
2.805352195143038e-07	2.503525e+00	2.071623e+00	2.589528e-01
2.818292467725322e-07	2.503541e+00	2.071623e+00	2.589529e-01
2.848411749853283e-07	2.503579e+00	2.071624e+00	2.589530e-01
2.873665031279356e-07	2.503611e+00	2.071624e+00	2.589530e-01
2.894084230920515e-07	2.503637e+00	2.071625e+00	2.589531e-01
2.960555410866093e-07	2.503720e+00	2.071625e+00	2.589531e-01
3.013757377140510e-07	2.503787e+00	2.071625e+00	2.589531e-01
3.044883633506358e-07	2.503826e+00	2.071624e+00	2.589530e-01
3.328200323544249e-07	2.504182e+00	2.071624e+00	2.589529e-01
3.368185656378899e-07	2.504233e+00	2.071624e+00	2.589530e-01
3.409069942614557e-07	2.504284e+00	2.071623e+00	2.589529e-01
3.412766811358814e-07	2.504289e+00	2.071623e+00	2.589529e-01
3.420160548847328e-07	2.504298e+00	2.071624e+00	2.589529e-01
3.434948023824357e-07	2.504317e+00	2.071624e+00	2.589530e-01
3.505467657253855e-07	2.504405e+00	2.071624e+00	2.589530e-01
3.605654668019542e-07	2.504531e+00	2.071623e+00	2.589529e-01
3.686248679071881e-07	2.504632e+00	2.071623e+00	2.589529e-01
3.722955185256592e-07	2.504678e+00	2.071623e+00	2.589529e-01
3.807270696189218e-07	2.504784e+00	2.071623e+00	2.589528e-01
4.033705906430344e-07	2.505069e+00	2.071624e+00	2.589530e-01
4.064458780125233e-07	2.505108e+00	2.071623e+00	2.589529e-01
4.110242062460970e-07	2.505165e+00	2.071622e+00	2.589528e-01
4.128755141787050e-07	2.505188e+00	2.071623e+00	2.589529e-01
4.147268221113130e-07	2.505212e+00	2.071623e+00	2.589529e-01
4.165781300439210e-07	2.505235e+00	2.071623e+00	2.589529e-01
4.184294379765290e-07	2.505258e+00	2.071624e+00	2.589530e-01
4.202807459091370e-07	2.505282e+00	2.071624e+00	2.589530e-01
4.221320538417449e-07	2.505305e+00	2.071624e+00	2.589530e-01
4.239833617743529e-07	2.505328e+00	2.071624e+00	2.589529e-01
4.287316203341178e-07	2.505388e+00	2.071624e+00	2.589530e-01
4.378014895026550e-07	2.505502e+00	2.071624e+00	2.589530e-01
4.497996952837390e-07	2.505652e+00	2.071623e+00	2.589529e-01
4.534876573514700e-07	2.505699e+00	2.071623e+00	2.589529e-01
4.599195986967674e-07	2.505780e+00	2.071623e+00	2.589529e-01
4.619276320537112e-07	2.505805e+00	2.071622e+00	2.589528e-01
4.669430258971684e-07	2.505868e+00	2.071622e+00	2.589527e-01
4.706345916092665e-07	2.505914e+00	2.071622e+00	2.589527e-01
4.744411381664730e-07	2.505962e+00	2.071621e+00	2.589526e-01
4.772261075554081e-07	2.505997e+00	2.071622e+00	2.589527e-01
4.783168695478004e-07	2.506011e+00	2.071622e+00	2.589528e-01
4.829718753745151e-07	2.506069e+00	2.071623e+00	2.589529e-01
4.849131915754386e-07	2.506094e+00	2.071622e+00	2.589528e-01
4.870634199829714e-07	2.506121e+00	2.071622e+00	2.589528e-01
4.914753991240059e-07	2.506176e+00	2.071623e+00	2.589529e-01
4.937236490932447e-07	2.506204e+00	2.071623e+00	2.589529e-01
4.971401961073319e-07	2.506247e+00	2.071622e+00	2.589527e-01
4.986745998211194e-07	2.506267e+00	2.071622e+00	2.589527e-01
4.996921282453573e-07	2.506279e+00	2.071622e+00	2.589528e-01
5.004552745635357e-07	2.506289e+00	2.071623e+00	2.589529e-01
5.012884333356926e-07	2.506299e+00	2.071624e+00	2.589529e-01
5.022843402482443e-07	2.506312e+00	2.071624e+00	2.589530e-01
5.042761540733476e-07	2.506337e+00	2.071625e+00	2.589531e-01
5.062369412127350e-07	2.506361e+00	2.071625e+00	2.589531e-01
5.082488846878351e-07	2.506387e+00	2.071624e+00	2.589530e-01
5.097020708910783e-07	2.506405e+00	2.071623e+00	2.589529e-01
5.135368348351777e-07	2.506453e+00	2.071622e+00	2.589528e-01
5.156656099786082e-07	2.506480e+00	2.071623e+00	2.589529e-01
5.210790944125390e-07	2.506548e+00	2.071624e+00	2.589530e-01
5.264925788464698e-07	2.506616e+00	2.071625e+00	2.589531e-01
5.319060632804006e-07	2.506684e+00	2.071626e+00	2.589532e-01
5.373195477143316e-07	2.506752e+00	2.071626e+00	2.589533e-01
5.427330321482624e-07	2.506820e+00	2.071626e+00	2.589533e-01
5.481465165821932e-07	2.506888e+00	2.071626e+00	2.589533e-01
5.535600010161241e-07	2.506956e+00	2.071626e+00	2.589532e-01
5.621544344730958e-07	2.507064e+00	2.071626e+00	2.589532e-01
5.707488679300675e-07	2.507172e+00	2.071626e+00	2.589532e-01
5.793433013870393e-07	2.507280e+00	2.071625e+00	2.589532e-01
5.879377348440109e-07	2.507388e+00	2.071625e+00	2.589531e-01
5.965321683009827e-07	2.507496e+00	2.071624e+00	2.589530e-01
6.051266017579545e-07	2.507604e+00	2.071623e+00	2.589529e-01
6.137210352149262e-07	2.507712e+00	2.071622e+00	2.589528e-01
6.166895785486227e-07	2.507750e+00	2.071622e+00	2.589528e-01
6.178769958821013e-07	2.507764e+00	2.071622e+00	2.589527e-01
6.208455392157978e-07	2.507802e+00	2.071622e+00	2.589527e-01
6.220329565492765e-07	2.507817e+00	2.071622e+00	2.589528e-01
6.244077912162336e-07	2.507847e+00	2.071622e+00	2.589527e-01
6.261889172164516e-07	2.507869e+00	2.071622e+00	2.589527e-01
6.285637518834088e-07	2.507899e+00	2.071621e+00	2.589527e-01
6.333507545681344e-07	2.507959e+00	2.071622e+00	2.589527e-01
6.354039989450772e-07	2.507985e+00	2.071622e+00	2.589528e-01
6.374477768337738e-07	2.508010e+00	2.071622e+00	2.589528e-01
6.395682349633571e-07	2.508037e+00	2.071623e+00	2.589529e-01
6.418799043561768e-07	2.508066e+00	2.071623e+00	2.589529e-01
6.465157696920010e-07	2.508124e+00	2.071623e+00	2.589529e-01
6.493171305239428e-07	2.508160e+00	2.071623e+00	2.589529e-01
6.517745770325643e-07	2.508190e+00	2.071623e+00	2.589529e-01
6.542188227337837e-07	2.508221e+00	2.071623e+00	2.589529e-01
6.565668554682582e-07	2.508251e+00	2.071623e+00	2.589529e-01
6.575568061379874e-07	2.508263e+00	2.071623e+00	2.589528e-01
6.604588439130268e-07	2.508300e+00	2.071622e+00	2.589528e-01
6.642194416979449e-07	2.508347e+00	2.071623e+00	2.589529e-01
6.679967357796007e-07	2.508394e+00	2.071624e+00	2.589530e-01
6.703485957002354e-07	2.508424e+00	2.071623e+00	2.589529e-01
6.739570215907822e-07	2.508469e+00	2.071623e+00	2.589529e-01
6.757129366555632e-07	2.508491e+00	2.071623e+00	2.589529e-01
6.810686581066560e-07	2.508559e+00	2.071624e+00	2.589529e-01
6.881734984558289e-07	2.508648e+00	2.071624e+00	2.589530e-01
6.923627778532992e-07	2.508700e+00	2.071622e+00	2.589528e-01
6.956628468977088e-07	2.508742e+00	2.071622e+00	2.589527e-01
6.963390519532435e-07	2.508750e+00	2.071622e+00	2.589527e-01
6.976914620643128e-07	2.508767e+00	2.071622e+00	2.589528e-01
6.994988207913069e-07	2.508790e+00	2.071622e+00	2.589528e-01
7.048038347808185e-07	2.508857e+00	2.071621e+00	2.589527e-01
7.143500019680881e-07	2.508977e+00	2.071620e+00	2.589525e-01
7.180893452760012e-07	2.509024e+00	2.071622e+00	2.589527e-01
7.204542262555451e-07	2.509053e+00	2.071622e+00	2.589528e-01
7.245656006515686e-07	2.509105e+00	2.071624e+00	2.589529e-01
7.271951284964229e-07	2.509138e+00	2.071623e+00	2.589529e-01
7.277131325461618e-07	2.509145e+00	2.071623e+00	2.589529e-01
7.287491406456395e-07	2.509158e+00	2.071623e+00	2.589529e-01
7.373330702234199e-07	2.509266e+00	2.071622e+00	2.589527e-01
7.385216604854440e-07	2.509280e+00	2.071622e+00	2.589528e-01
7.401823702752134e-07	2.509301e+00	2.071622e+00	2.589528e-01
7.407346168896984e-07	2.509308e+00	2.071622e+00	2.589528e-01
7.419164926604459e-07	2.509323e+00	2.071623e+00	2.589528e-01
7.430983684311936e-07	2.509338e+00	2.071623e+00	2.589528e-01
7.442802442019412e-07	2.509353e+00	2.071623e+00	2.589528e-01
7.454621199726887e-07	2.509368e+00	2.071623e+00	2.589528e-01
7.466439957434363e-07	2.509383e+00	2.071622e+00	2.589528e-01
7.478258715141839e-07	2.509397e+00	2.071622e+00	2.589528e-01
7.490077472849315e-07	2.509412e+00	2.071622e+00	2.589528e-01
7.518112497020254e-07	2.509448e+00	2.071622e+00	2.589528e-01
7.568860648234173e-07	2.509511e+00	2.071623e+00	2.589529e-01
7.581798381232460e-07	2.509527e+00	2.071623e+00	2.589528e-01
7.607291733554606e-07	2.509560e+00	2.071622e+00	2.589528e-01
7.622940147590618e-07	2.509579e+00	2.071622e+00	2.589528e-01
7.637133744532614e-07	2.509597e+00	2.071622e+00	2.589528e-01
7.646752717318959e-07	2.509609e+00	2.071622e+00	2.589527e-01
7.675348454126746e-07	2.509645e+00	2.071622e+00	2.589527e-01
7.733393247110325e-07	2.509718e+00	2.071621e+00	2.589526e-01
7.762741488401821e-07	2.509755e+00	2.071621e+00	2.589526e-01
7.780155190090580e-07	2.509777e+00	2.071621e+00	2.589526e-01
7.795999484727649e-07	2.509797e+00	2.071621e+00	2.589527e-01
7.827679934916276e-07	2.509836e+00	2.071621e+00	2.589526e-01
7.881467491962407e-07	2.509904e+00	2.071622e+00	2.589527e-01
8.504807820366742e-07	2.510687e+00	2.071628e+00	2.589535e-01
9.128148148771076e-07	2.511471e+00	2.071667e+00	2.589584e-01
9.751488477175411e-07	2.512254e+00	2.071739e+00	2.589674e-01
1.037482880557975e-06	2.513037e+00	2.071843e+00	2.589804e-01
1.099816913398408e-06	2.513820e+00	2.071980e+00	2.589975e-01
1.162150946238842e-06	2.514604e+00	2.072150e+00	2.590187e-01
1.224484979079275e-06	2.515387e+00	2.072352e+00	2.590440e-01
1.422789014555675e-06	2.517879e+00	2.073100e+00	2.591375e-01
1.477422360660469e-06	2.518566e+00	2.073319e+00	2.591649e-01
1.532055706765262e-06	2.519252e+00	2.073514e+00	2.591892e-01
1.586689052870056e-06	2.519939e+00	2.073684e+00	2.592104e-01
1.641322398974850e-06	2.520625e+00	2.073829e+00	2.592286e-01
1.695955745079644e-06	2.521312e+00	2.073950e+00	2.592438e-01
1.750589091184437e-06	2.521998e+00	2.074047e+00	2.592558e-01
1.805222437289231e-06	2.522685e+00	2.074119e+00	2.592649e-01
1.918885966059221e-06	2.524113e+00	2.074205e+00	2.592757e-01
2.083272326576216e-06	2.526178e+00	2.074260e+00	2.592824e-01
2.256551149428020e-06	2.528356e+00	2.074413e+00	2.593016e-01
2.327485895372773e-06	2.529247e+00	2.074537e+00	2.593172e-01
2.382320886769810e-06	2.529936e+00	2.074666e+00	2.593333e-01
2.443394509376192e-06	2.530703e+00	2.074851e+00	2.593564e-01
2.598490740605623e-06	2.532652e+00	2.075543e+00	2.594429e-01
2.760901255273621e-06	2.534693e+00	2.076502e+00	2.595628e-01
2.885827569242090e-06	2.536262e+00	2.077284e+00	2.596605e-01
2.948093022257540e-06	2.537045e+00	2.077649e+00	2.597061e-01
3.010358475272991e-06	2.537827e+00	2.077973e+00	2.597466e-01
3.072623928288442e-06	2.538609e+00	2.078256e+00	2.597820e-01
3.134889381303893e-06	2.539392e+00	2.078499e+00	2.598123e-01
3.197154834319344e-06	2.540174e+00	2.078700e+00	2.598375e-01
3.259420287334795e-06	2.540956e+00	2.078861e+00	2.598577e-01
3.321685740350245e-06	2.541739e+00	2.078981e+00	2.598727e-01
3.336782848872884e-06	2.541928e+00	2.079007e+00	2.598759e-01
3.401585725437748e-06	2.542742e+00	2.079084e+00	2.598855e-01
3.466388602002613e-06	2.543556e+00	2.079188e+00	2.598985e-01
3.531191478567476e-06	2.544371e+00	2.079319e+00	2.599148e-01
3.595994355132341e-06	2.545185e+00	2.079477e+00	2.599346e-01
3.660797231697205e-06	2.545999e+00	2.079662e+00	2.599577e-01
3.725600108262069e-06	2.546813e+00	2.079874e+00	2.599842e-01
3.790402984826933e-06	2.547627e+00	2.080113e+00	2.600141e-01
3.882566055230806e-06	2.548785e+00	2.080543e+00	2.600679e-01
3.930164263992142e-06	2.549383e+00	2.080792e+00	2.600991e-01
3.970015937064577e-06	2.549884e+00	2.081019e+00	2.601274e-01
4.057440690927903e-06	2.550982e+00	2.081617e+00	2.602021e-01
4.144865444791229e-06	2.552080e+00	2.082203e+00	2.602754e-01
4.232290198654555e-06	2.553178e+00	2.082779e+00	2.603474e-01
4.319714952517881e-06	2.554276e+00	2.083344e+00	2.604180e-01
4.407139706381208e-06	2.555375e+00	2.083898e+00	2.604873e-01
4.494564460244534e-06	2.556473e+00	2.084442e+00	2.605552e-01
4.581989214107860e-06	2.557571e+00	2.084974e+00	2.606218e-01
4.673964691033318e-06	2.558726e+00	2.085359e+00	2.606699e-01
4.765940167958775e-06	2.559882e+00	2.085749e+00	2.607187e-01
4.857915644884233e-06	2.561037e+00	2.086145e+00	2.607682e-01
4.949891121809691e-06	2.562192e+00	2.086547e+00	2.608184e-01
5.041866598735148e-06	2.563347e+00	2.086954e+00	2.608693e-01
5.133842075660605e-06	2.564503e+00	2.087367e+00	2.609209e-01
5.225817552586063e-06	2.565658e+00	2.087786e+00	2.609732e-01
5.401595676188680e-06	2.567865e+00	2.088821e+00	2.611026e-01
5.440598961331812e-06	2.568355e+00	2.089067e+00	2.611333e-01
5.443661976020534e-06	2.568394e+00	2.089087e+00	2.611358e-01
5.449788005397979e-06	2.568471e+00	2.089126e+00	2.611407e-01
5.548805344056251e-06	2.569714e+00	2.089797e+00	2.612246e-01
5.647822682714524e-06	2.570958e+00	2.090478e+00	2.613097e-01
5.746840021372797e-06	2.572201e+00	2.091170e+00	2.613962e-01
5.845857360031070e-06	2.573445e+00	2.091871e+00	2.614839e-01
5.944874698689342e-06	2.574688e+00	2.092583e+00	2.615729e-01
6.043892037347615e-06	2.575932e+00	2.093306e+00	2.616632e-01
6.142909376005888e-06	2.577175e+00	2.094038e+00	2.617548e-01
6.159452474466034e-06	2.577383e+00	2.094152e+00	2.617690e-01
6.166027422853185e-06	2.577465e+00	2.094196e+00	2.617745e-01
6.167167524140413e-06	2.577480e+00	2.094203e+00	2.617754e-01
6.168307625427641e-06	2.577494e+00	2.094211e+00	2.617763e-01
6.169447726714869e-06	2.577508e+00	2.094218e+00	2.617773e-01
6.170587828002097e-06	2.577523e+00	2.094226e+00	2.617783e-01
6.171727929289324e-06	2.577537e+00	2.094234e+00	2.617793e-01
6.172868030576553e-06	2.577551e+00	2.094242e+00	2.617803e-01
6.174008131863780e-06	2.577565e+00	2.094250e+00	2.617813e-01
6.178643704978222e-06	2.577624e+00	2.094282e+00	2.617852e-01
6.180895460946816e-06	2.577652e+00	2.094297e+00	2.617871e-01
6.189053608175388e-06	2.577754e+00	2.094352e+00	2.617940e-01
6.197211755403960e-06	2.577857e+00	2.094406e+00	2.618007e-01
6.205369902632532e-06	2.577959e+00	2.094460e+00	2.618075e-01
6.213528049861103e-06	2.578062e+00	2.094514e+00	2.618142e-01
6.221686197089675e-06	2.578164e+00	2.094567e+00	2.618209e-01
6.229844344318247e-06	2.578266e+00	2.094620e+00	2.618275e-01
6.238002491546819e-06	2.578369e+00	2.094673e+00	2.618342e-01
6.258080731975350e-06	2.578621e+00	2.094806e+00	2.618507e-01
6.282873572304313e-06	2.578933e+00	2.094964e+00	2.618705e-01
6.296105727098924e-06	2.579098e+00	2.095046e+00	2.618808e-01
6.304037950579073e-06	2.579198e+00	2.095096e+00	2.618870e-01
6.315767694666265e-06	2.579346e+00	2.095169e+00	2.618961e-01
6.327497438753457e-06	2.579493e+00	2.095241e+00	2.619051e-01
6.339227182840649e-06	2.579640e+00	2.095313e+00	2.619141e-01
6.350956926927841e-06	2.579787e+00	2.095385e+00	2.619231e-01
6.362686671015033e-06	2.579935e+00	2.095456e+00	2.619320e-01
6.374416415102225e-06	2.580082e+00	2.095527e+00	2.619409e-01
6.386146159189417e-06	2.580229e+00	2.095598e+00	2.619497e-01
6.407279004564808e-06	2.580494e+00	2.095723e+00	2.619654e-01
6.417331324173955e-06	2.580621e+00	2.095784e+00	2.619730e-01
6.426434640051748e-06	2.580735e+00	2.095838e+00	2.619797e-01
6.478315433296887e-06	2.581386e+00	2.096143e+00	2.620179e-01
6.833238469818655e-06	2.585843e+00	2.098207e+00	2.622758e-01
6.945257049142077e-06	2.587249e+00	2.098897e+00	2.623622e-01
6.999233682985539e-06	2.587927e+00	2.099242e+00	2.624053e-01
7.046217765305076e-06	2.588516e+00	2.099556e+00	2.624445e-01
7.175745233290846e-06	2.590142e+00	2.100667e+00	2.625833e-01
7.305272701276616e-06	2.591768e+00	2.101765e+00	2.627206e-01
7.434800169262386e-06	2.593394e+00	2.102850e+00	2.628563e-01
7.564327637248155e-06	2.595020e+00	2.103923e+00	2.629903e-01
7.693855105233926e-06	2.596646e+00	2.104983e+00	2.631228e-01
7.823382573219695e-06	2.598272e+00	2.106030e+00	2.632537e-01
7.952910041205465e-06	2.599898e+00	2.107064e+00	2.633830e-01
8.029038049870104e-06	2.600853e+00	2.107540e+00	2.634425e-01
8.053451716784240e-06	2.601160e+00	2.107685e+00	2.634606e-01
8.096645684361608e-06	2.601702e+00	2.107929e+00	2.634911e-01
8.139839651938975e-06	2.602244e+00	2.108177e+00	2.635221e-01
8.183033619516343e-06	2.602786e+00	2.108429e+00	2.635536e-01
8.226227587093709e-06	2.603328e+00	2.108685e+00	2.635856e-01
8.269421554671077e-06	2.603870e+00	2.108945e+00	2.636182e-01
8.312615522248445e-06	2.604412e+00	2.109210e+00	2.636512e-01
8.355809489825813e-06	2.604954e+00	2.109479e+00	2.636848e-01
8.453651416542214e-06	2.606182e+00	2.110131e+00	2.637663e-01
8.478008776451026e-06	2.606488e+00	2.110302e+00	2.637877e-01
8.543873830794379e-06	2.607314e+00	2.110791e+00	2.638488e-01
8.548233485598538e-06	2.607369e+00	2.110823e+00	2.638529e-01
8.556952795206857e-06	2.607478e+00	2.110890e+00	2.638613e-01
8.574391414423493e-06	2.607697e+00	2.111026e+00	2.638783e-01
8.578210502434268e-06	2.607745e+00	2.111056e+00	2.638820e-01
8.582793408047200e-06	2.607802e+00	2.111094e+00	2.638867e-01
8.695280665974738e-06	2.609214e+00	2.112196e+00	2.640245e-01
8.807767923902277e-06	2.610625e+00	2.113286e+00	2.641608e-01
8.920255181829815e-06	2.612037e+00	2.114365e+00	2.642956e-01
9.032742439757354e-06	2.613448e+00	2.115431e+00	2.644289e-01
9.145229697684892e-06	2.614859e+00	2.116486e+00	2.645608e-01
9.257716955612430e-06	2.616270e+00	2.117529e+00	2.646912e-01
9.370204213539969e-06	2.617682e+00	2.118560e+00	2.648200e-01
9.461669039571534e-06	2.618829e+00	2.119174e+00	2.648968e-01
9.553133865603100e-06	2.619976e+00	2.119799e+00	2.649749e-01
9.644598691634667e-06	2.621124e+00	2.120435e+00	2.650544e-01
9.736063517666232e-06	2.622271e+00	2.121083e+00	2.651354e-01
9.827528343697798e-06	2.623418e+00	2.121742e+00	2.652177e-01
9.918993169729363e-06	2.624565e+00	2.122411e+00	2.653014e-01
1.001045799576093e-05	2.625712e+00	2.123092e+00	2.653866e-01
1.007271729029070e-05	2.626493e+00	2.123626e+00	2.654532e-01
1.011840214686530e-05	2.627066e+00	2.124034e+00	2.655043e-01
1.016126974898435e-05	2.627604e+00	2.124431e+00	2.655539e-01
