time	V(dac_out)	V(after_filter)
0.000000000000000e+00	2.500000e+00	2.500000e+00
9.999999824516700e-14	2.500000e+00	2.500000e+00
1.999999964903340e-13	2.500000e+00	2.500000e+00
3.999999929806680e-13	2.500000e+00	2.500000e+00
7.999999859613360e-13	2.500000e+00	2.500000e+00
1.599999971922672e-12	2.500000e+00	2.500000e+00
3.199999943845344e-12	2.500000e+00	2.500000e+00
6.399999887690688e-12	2.500000e+00	2.500000e+00
1.279999977538138e-11	2.500000e+00	2.500000e+00
2.559999955076275e-11	2.500000e+00	2.500000e+00
5.119999910152551e-11	2.500000e+00	2.500000e+00
1.023999982030510e-10	2.500000e+00	2.500000e+00
2.047999964061020e-10	2.500000e+00	2.500000e+00
4.095999928122041e-10	2.500000e+00	2.500000e+00
8.191999856244081e-10	2.500000e+00	2.500000e+00
3.276799942497632e-09	2.500000e+00	2.500000e+00
3.512869650921578e-08	2.500000e+00	2.500000e+00
3.732008617260921e-08	2.504197e+00	2.500000e+00
4.022715099741497e-08	2.516456e+00	2.500000e+00
4.156344269586262e-08	2.519531e+00	2.500000e+00
4.433646469635202e-08	2.519531e+00	2.500000e+00
5.248709411044964e-08	2.519531e+00	2.500000e+00
6.063772352454727e-08	2.519531e+00	2.500002e+00
6.878835293864489e-08	2.519531e+00	2.500003e+00
7.693898235274252e-08	2.519531e+00	2.500004e+00
8.508961176684014e-08	2.519531e+00	2.500006e+00
9.324024118093776e-08	2.519531e+00	2.500008e+00
1.013908705950354e-07	2.519531e+00	2.500010e+00
1.113908705950354e-07	2.524414e+00	2.500013e+00
1.213908705950354e-07	2.534180e+00	2.500017e+00
1.313908705950354e-07	2.539062e+00	2.500021e+00
1.813908705950354e-07	2.539062e+00	2.500070e+00
1.913908705950354e-07	2.543945e+00	2.500085e+00
2.013908705950354e-07	2.553711e+00	2.500101e+00
2.113908705950355e-07	2.558594e+00	2.500119e+00
2.613908705950355e-07	2.558594e+00	2.500247e+00
2.713908705950355e-07	2.563477e+00	2.500281e+00
2.813908705950355e-07	2.573242e+00	2.500317e+00
2.913908705950355e-07	2.578125e+00	2.500356e+00
3.213908705950355e-07	2.578125e+00	2.500493e+00
3.413908705950356e-07	2.578125e+00	2.500602e+00
3.513908705950356e-07	2.583008e+00	2.500661e+00
3.613908705950356e-07	2.592773e+00	2.500726e+00
3.713908705950356e-07	2.597656e+00	2.500795e+00
3.913908705950356e-07	2.597656e+00	2.500944e+00
4.013908705950356e-07	2.597656e+00	2.501024e+00
4.026408705950356e-07	2.597656e+00	2.501034e+00
4.051408705950356e-07	2.597656e+00	2.501056e+00
4.301408705950356e-07	2.597656e+00	2.501287e+00
4.401408705950356e-07	2.602539e+00	2.501385e+00
4.501408705950356e-07	2.612305e+00	2.501487e+00
4.601408705950356e-07	2.617188e+00	2.501593e+00
4.701408705950356e-07	2.617188e+00	2.501707e+00
4.734444420236071e-07	2.617188e+00	2.501746e+00
4.767480134521784e-07	2.617188e+00	2.501785e+00
4.800515848807499e-07	2.617188e+00	2.501824e+00
4.833551563093213e-07	2.617188e+00	2.501864e+00
4.866587277378927e-07	2.617188e+00	2.501905e+00
4.899622991664641e-07	2.617188e+00	2.501946e+00
4.932658705950355e-07	2.617188e+00	2.501988e+00
5.032658705950355e-07	2.617188e+00	2.502119e+00
5.132658705950356e-07	2.622070e+00	2.502252e+00
5.232658705950356e-07	2.631836e+00	2.502389e+00
5.332658705950356e-07	2.636719e+00	2.502533e+00
5.832658705950356e-07	2.636719e+00	2.503329e+00
5.932658705950356e-07	2.641602e+00	2.503503e+00
6.032658705950356e-07	2.655165e+00	2.503679e+00
6.045158705950356e-07	2.656250e+00	2.503701e+00
6.120158705950356e-07	2.656250e+00	2.503839e+00
6.620158705950356e-07	2.656250e+00	2.504823e+00
6.720158705950356e-07	2.661133e+00	2.505033e+00
6.820158705950356e-07	2.670898e+00	2.505248e+00
6.920158705950356e-07	2.675781e+00	2.505468e+00
7.520158705950357e-07	2.675781e+00	2.506866e+00
7.620158705950357e-07	2.680664e+00	2.507112e+00
7.720158705950357e-07	2.690430e+00	2.507361e+00
7.820158705950357e-07	2.695312e+00	2.507613e+00
8.320158705950358e-07	2.695312e+00	2.508923e+00
8.420158705950358e-07	2.700195e+00	2.509193e+00
8.520158705950358e-07	2.709961e+00	2.509465e+00
8.620158705950358e-07	2.714844e+00	2.509738e+00
8.691587277378929e-07	2.714844e+00	2.509935e+00
8.763015848807502e-07	2.714844e+00	2.510134e+00
8.834444420236073e-07	2.714844e+00	2.510333e+00
8.905872991664644e-07	2.714844e+00	2.510534e+00
8.977301563093216e-07	2.714844e+00	2.510736e+00
9.048730134521787e-07	2.714844e+00	2.510939e+00
9.120158705950359e-07	2.714844e+00	2.511143e+00
9.220158705950359e-07	2.719727e+00	2.511428e+00
9.320158705950359e-07	2.729492e+00	2.511715e+00
9.420158705950359e-07	2.734375e+00	2.512003e+00
9.920158705950355e-07	2.734375e+00	2.513465e+00
1.002015870595035e-06	2.739258e+00	2.513761e+00
1.012015870595035e-06	2.749023e+00	2.514060e+00
1.022015870595035e-06	2.753906e+00	2.514359e+00
1.072015870595035e-06	2.753906e+00	2.515855e+00
1.082015870595035e-06	2.758789e+00	2.516157e+00
1.092015870595035e-06	2.768555e+00	2.516459e+00
1.102015870595034e-06	2.773438e+00	2.516761e+00
1.152015870595034e-06	2.773438e+00	2.518282e+00
1.162015870595034e-06	2.778320e+00	2.518588e+00
1.172015870595034e-06	2.788086e+00	2.518895e+00
1.182015870595034e-06	2.792969e+00	2.519202e+00
1.193265870595034e-06	2.792969e+00	2.519548e+00
1.200765870595034e-06	2.792969e+00	2.519781e+00
1.230765870595033e-06	2.792969e+00	2.520715e+00
1.240765870595033e-06	2.797852e+00	2.521026e+00
1.250765870595033e-06	2.807617e+00	2.521338e+00
1.260765870595033e-06	2.812500e+00	2.521652e+00
1.310765870595032e-06	2.812500e+00	2.523249e+00
1.320765870595032e-06	2.817383e+00	2.523570e+00
1.330765870595032e-06	2.827148e+00	2.523893e+00
1.340765870595032e-06	2.832031e+00	2.524220e+00
1.390765870595032e-06	2.832031e+00	2.525891e+00
1.400765870595032e-06	2.836914e+00	2.526231e+00
1.410765870595032e-06	2.846680e+00	2.526574e+00
1.420765870595031e-06	2.851562e+00	2.526920e+00
1.470765870595031e-06	2.851562e+00	2.528691e+00
1.480765870595031e-06	2.856445e+00	2.529057e+00
1.490765870595031e-06	2.866211e+00	2.529425e+00
1.500765870595031e-06	2.871094e+00	2.529795e+00
1.560765870595030e-06	2.871094e+00	2.532097e+00
1.570765870595030e-06	2.875977e+00	2.532495e+00
1.580765870595030e-06	2.885742e+00	2.532896e+00
1.590765870595030e-06	2.890625e+00	2.533299e+00
1.640765870595029e-06	2.890625e+00	2.535384e+00
1.650765870595029e-06	2.895508e+00	2.535814e+00
1.660765870595029e-06	2.905273e+00	2.536247e+00
1.670765870595029e-06	2.910156e+00	2.536684e+00
1.720765870595029e-06	2.910156e+00	2.538935e+00
1.730765870595028e-06	2.915039e+00	2.539397e+00
1.740765870595028e-06	2.924805e+00	2.539863e+00
1.750765870595028e-06	2.929688e+00	2.540332e+00
1.800765870595028e-06	2.929688e+00	2.542740e+00
1.810765870595028e-06	2.934570e+00	2.543232e+00
1.820765870595028e-06	2.944336e+00	2.543728e+00
1.830765870595027e-06	2.949219e+00	2.544228e+00
1.837908727737885e-06	2.949219e+00	2.544587e+00
1.845051584880742e-06	2.949219e+00	2.544948e+00
1.852194442023599e-06	2.949219e+00	2.545311e+00
1.859337299166456e-06	2.949219e+00	2.545675e+00
1.866480156309313e-06	2.949219e+00	2.546041e+00
1.873623013452170e-06	2.949219e+00	2.546409e+00
1.880765870595027e-06	2.949219e+00	2.546779e+00
1.890765870595027e-06	2.954102e+00	2.547297e+00
1.900765870595027e-06	2.963867e+00	2.547818e+00
1.910765870595027e-06	2.968750e+00	2.548343e+00
1.969515870595026e-06	2.968750e+00	2.551484e+00
1.979515870595026e-06	2.973633e+00	2.552026e+00
1.989515870595026e-06	2.983398e+00	2.552570e+00
1.999515870595026e-06	2.988281e+00	2.553117e+00
2.049515870595026e-06	2.988281e+00	2.555878e+00
2.059515870595026e-06	2.993164e+00	2.556435e+00
2.069515870595025e-06	3.002930e+00	2.556993e+00
2.079515870595025e-06	3.007812e+00	2.557552e+00
2.129515870595025e-06	3.007812e+00	2.560369e+00
2.139515870595025e-06	3.012695e+00	2.560935e+00
2.149515870595025e-06	3.022461e+00	2.561501e+00
2.159515870595025e-06	3.027344e+00	2.562067e+00
2.210765870595024e-06	3.027344e+00	2.564991e+00
2.218265870595024e-06	3.027344e+00	2.565420e+00
2.228265870595024e-06	3.032227e+00	2.565994e+00
2.238265870595024e-06	3.041992e+00	2.566567e+00
2.249515870595024e-06	3.046875e+00	2.567213e+00
2.252015870595024e-06	3.046875e+00	2.567356e+00
2.268265870595024e-06	3.046875e+00	2.568289e+00
2.275765870595024e-06	3.046875e+00	2.568721e+00
2.295765870595024e-06	3.046875e+00	2.569877e+00
2.305765870595024e-06	3.051758e+00	2.570455e+00
2.317015870595024e-06	3.066406e+00	2.571105e+00
2.321390870595024e-06	3.066406e+00	2.571356e+00
2.328890870595024e-06	3.066406e+00	2.571791e+00
2.358890870595024e-06	3.066406e+00	2.573535e+00
2.378890870595024e-06	3.066406e+00	2.574702e+00
2.388890870595024e-06	3.071289e+00	2.575286e+00
2.398890870595023e-06	3.081055e+00	2.575871e+00
2.408890870595023e-06	3.085938e+00	2.576456e+00
2.417283727737881e-06	3.085938e+00	2.576948e+00
2.425676584880737e-06	3.085938e+00	2.577442e+00
2.434069442023595e-06	3.085938e+00	2.577936e+00
2.442462299166452e-06	3.085938e+00	2.578432e+00
2.450855156309309e-06	3.085938e+00	2.578930e+00
2.459248013452166e-06	3.085938e+00	2.579428e+00
2.467640870595023e-06	3.085938e+00	2.579928e+00
2.477640870595023e-06	3.090820e+00	2.580525e+00
2.487640870595023e-06	3.100586e+00	2.581121e+00
2.497640870595023e-06	3.105469e+00	2.581719e+00
2.547640870595022e-06	3.105469e+00	2.584742e+00
2.557640870595022e-06	3.110352e+00	2.585351e+00
2.567640870595022e-06	3.120117e+00	2.585964e+00
2.577640870595022e-06	3.125000e+00	2.586579e+00
2.637640870595021e-06	3.125000e+00	2.590324e+00
2.647640870595021e-06	3.129883e+00	2.590956e+00
2.657640870595021e-06	3.139648e+00	2.591592e+00
2.667640870595021e-06	3.144531e+00	2.592231e+00
2.717640870595021e-06	3.144531e+00	2.595471e+00
2.727640870595020e-06	3.149414e+00	2.596127e+00
2.737640870595020e-06	3.159180e+00	2.596786e+00
2.747640870595020e-06	3.164062e+00	2.597448e+00
2.811390870595020e-06	3.164062e+00	2.601754e+00
2.816390870595020e-06	3.167318e+00	2.602099e+00
2.826390870595020e-06	3.178711e+00	2.602789e+00
2.836390870595020e-06	3.183594e+00	2.603482e+00
2.843355156309305e-06	3.183594e+00	2.603965e+00
2.850319442023591e-06	3.183594e+00	2.604451e+00
2.857283727737877e-06	3.183594e+00	2.604938e+00
2.864248013452162e-06	3.183594e+00	2.605427e+00
2.871212299166448e-06	3.183594e+00	2.605917e+00
2.878176584880734e-06	3.183594e+00	2.606410e+00
2.885140870595019e-06	3.183594e+00	2.606904e+00
2.895140870595019e-06	3.188477e+00	2.607615e+00
2.905140870595019e-06	3.198242e+00	2.608330e+00
2.915140870595019e-06	3.203125e+00	2.609049e+00
2.936390870595019e-06	3.203125e+00	2.610585e+00
2.943890870595019e-06	3.203125e+00	2.611131e+00
2.973890870595019e-06	3.203125e+00	2.613328e+00
2.983890870595019e-06	3.208008e+00	2.614067e+00
2.993890870595019e-06	3.217773e+00	2.614810e+00
3.003890870595018e-06	3.222656e+00	2.615554e+00
3.063890870595018e-06	3.222656e+00	2.620071e+00
3.073890870595018e-06	3.227539e+00	2.620832e+00
3.083890870595018e-06	3.237305e+00	2.621595e+00
3.093890870595018e-06	3.242188e+00	2.622360e+00
3.143890870595017e-06	3.242188e+00	2.626216e+00
3.153890870595017e-06	3.247070e+00	2.626993e+00
3.163890870595017e-06	3.256836e+00	2.627770e+00
3.173890870595017e-06	3.261719e+00	2.628548e+00
3.233890870595016e-06	3.261719e+00	2.633251e+00
3.243890870595016e-06	3.266602e+00	2.634039e+00
3.253890870595016e-06	3.276367e+00	2.634827e+00
3.263890870595016e-06	3.281250e+00	2.635616e+00
3.315140870595016e-06	3.281250e+00	2.639676e+00
3.322640870595016e-06	3.281250e+00	2.640273e+00
3.332640870595016e-06	3.286133e+00	2.641069e+00
3.342640870595015e-06	3.295898e+00	2.641864e+00
3.356390870595016e-06	3.300781e+00	2.642958e+00
3.410140870595015e-06	3.300781e+00	2.647250e+00
3.420140870595015e-06	3.305664e+00	2.648049e+00
3.431390870595015e-06	3.320312e+00	2.648948e+00
3.438890870595015e-06	3.320312e+00	2.649550e+00
3.447283727737872e-06	3.320312e+00	2.650223e+00
3.455676584880729e-06	3.320312e+00	2.650896e+00
3.464069442023586e-06	3.320312e+00	2.651569e+00
3.472462299166444e-06	3.320312e+00	2.652243e+00
3.480855156309301e-06	3.320312e+00	2.652918e+00
3.489248013452158e-06	3.320312e+00	2.653593e+00
3.497640870595015e-06	3.320312e+00	2.654268e+00
3.507640870595015e-06	3.325195e+00	2.655073e+00
3.517640870595015e-06	3.334961e+00	2.655879e+00
3.527640870595015e-06	3.339844e+00	2.656685e+00
3.586390870595014e-06	3.339844e+00	2.661440e+00
3.596390870595014e-06	3.344727e+00	2.662252e+00
3.606390870595014e-06	3.354492e+00	2.663067e+00
3.616390870595014e-06	3.359375e+00	2.663882e+00
3.676390870595013e-06	3.359375e+00	2.668799e+00
3.686390870595013e-06	3.364258e+00	2.669623e+00
3.696390870595013e-06	3.374023e+00	2.670449e+00
3.706390870595013e-06	3.378906e+00	2.671276e+00
3.766390870595012e-06	3.378906e+00	2.676280e+00
3.776390870595012e-06	3.383789e+00	2.677121e+00
3.786390870595012e-06	3.393555e+00	2.677963e+00
3.796390870595012e-06	3.398438e+00	2.678809e+00
3.856390870595012e-06	3.398438e+00	2.683928e+00
3.866390870595012e-06	3.403320e+00	2.684788e+00
3.876390870595012e-06	3.413086e+00	2.685652e+00
3.886390870595012e-06	3.417969e+00	2.686519e+00
3.946390870595011e-06	3.417969e+00	2.691768e+00
3.956390870595011e-06	3.422852e+00	2.692653e+00
3.967640870595011e-06	3.437500e+00	2.693649e+00
3.975140870595012e-06	3.437500e+00	2.694316e+00
4.035140870595011e-06	3.437500e+00	2.699707e+00
4.045140870595011e-06	3.442383e+00	2.700614e+00
4.055140870595011e-06	3.452148e+00	2.701523e+00
4.065140870595011e-06	3.457031e+00	2.702434e+00
4.125140870595010e-06	3.457031e+00	2.707959e+00
4.135140870595010e-06	3.461914e+00	2.708888e+00
4.145140870595010e-06	3.471680e+00	2.709817e+00
4.155140870595010e-06	3.476562e+00	2.710750e+00
4.215140870595009e-06	3.476562e+00	2.716387e+00
4.225140870595009e-06	3.481445e+00	2.717334e+00
4.235140870595009e-06	3.491211e+00	2.718284e+00
4.245140870595009e-06	3.496094e+00	2.719235e+00
4.305140870595008e-06	3.496094e+00	2.724967e+00
4.315140870595008e-06	3.500977e+00	2.725928e+00
4.325140870595008e-06	3.510742e+00	2.726889e+00
4.335140870595008e-06	3.515625e+00	2.727852e+00
4.405140870595007e-06	3.515625e+00	2.734620e+00
4.415140870595007e-06	3.520508e+00	2.735590e+00
4.425140870595007e-06	3.530273e+00	2.736562e+00
4.435140870595007e-06	3.535156e+00	2.737536e+00
4.495140870595007e-06	3.535156e+00	2.743382e+00
4.505140870595006e-06	3.540039e+00	2.744357e+00
4.515140870595006e-06	3.549805e+00	2.745333e+00
4.525140870595006e-06	3.554688e+00	2.746311e+00
4.585140870595006e-06	3.554688e+00	2.752182e+00
4.595140870595006e-06	3.559570e+00	2.753163e+00
4.605140870595005e-06	3.569336e+00	2.754144e+00
4.615140870595005e-06	3.574219e+00	2.755125e+00
4.685140870595005e-06	3.574219e+00	2.762003e+00
4.695140870595005e-06	3.579102e+00	2.762986e+00
4.705140870595005e-06	3.588867e+00	2.763971e+00
4.718890870595005e-06	3.593750e+00	2.765328e+00
4.747640870595005e-06	3.593750e+00	2.768166e+00
4.762640870595005e-06	3.593750e+00	2.769652e+00
4.782640870595005e-06	3.593750e+00	2.771633e+00
4.792640870595005e-06	3.598633e+00	2.772625e+00
4.802640870595005e-06	3.608398e+00	2.773619e+00
4.812640870595005e-06	3.613281e+00	2.774613e+00
4.883890870595004e-06	3.613281e+00	2.781722e+00
4.891390870595005e-06	3.626302e+00	2.782475e+00
4.901390870595005e-06	3.632812e+00	2.783483e+00
4.911390870595004e-06	3.632812e+00	2.784488e+00
4.921390870595004e-06	3.632812e+00	2.785496e+00
4.931390870595004e-06	3.632812e+00	2.786505e+00
4.941390870595004e-06	3.632812e+00	2.787515e+00
4.951390870595004e-06	3.632812e+00	2.788528e+00
4.961390870595004e-06	3.632812e+00	2.789542e+00
4.971390870595004e-06	3.632812e+00	2.790558e+00
4.981390870595004e-06	3.637695e+00	2.791574e+00
4.991390870595004e-06	3.647461e+00	2.792592e+00
5.001390870595004e-06	3.652344e+00	2.793611e+00
5.071390870595003e-06	3.652344e+00	2.800808e+00
5.081390870595003e-06	3.657227e+00	2.801843e+00
5.091390870595003e-06	3.666992e+00	2.802881e+00
5.101390870595003e-06	3.671875e+00	2.803921e+00
5.171390870595002e-06	3.671875e+00	2.811250e+00
5.181390870595002e-06	3.676758e+00	2.812305e+00
5.191390870595002e-06	3.686523e+00	2.813362e+00
5.201390870595002e-06	3.691406e+00	2.814421e+00
5.271390870595001e-06	3.691406e+00	2.821883e+00
5.281390870595001e-06	3.696289e+00	2.822957e+00
5.291390870595001e-06	3.706055e+00	2.824032e+00
5.301390870595001e-06	3.710938e+00	2.825108e+00
5.371390870595000e-06	3.710938e+00	2.832685e+00
5.381390870595000e-06	3.715820e+00	2.833772e+00
5.391390870595000e-06	3.725586e+00	2.834862e+00
5.401390870595000e-06	3.730469e+00	2.835953e+00
5.471390870594999e-06	3.730469e+00	2.843617e+00
5.481390870594999e-06	3.735352e+00	2.844715e+00
5.491390870594999e-06	3.745117e+00	2.845814e+00
5.501390870594999e-06	3.750000e+00	2.846915e+00
5.571390870594998e-06	3.750000e+00	2.854637e+00
5.581390870594998e-06	3.754883e+00	2.855743e+00
5.591390870594998e-06	3.764648e+00	2.856849e+00
5.601390870594998e-06	3.769531e+00	2.857955e+00
5.681390870594997e-06	3.769531e+00	2.866818e+00
5.691390870594997e-06	3.774414e+00	2.867927e+00
5.701390870594997e-06	3.784180e+00	2.869037e+00
5.711390870594997e-06	3.789062e+00	2.870147e+00
5.781390870594996e-06	3.789062e+00	2.877922e+00
5.791390870594996e-06	3.793945e+00	2.879034e+00
5.801390870594996e-06	3.803711e+00	2.880146e+00
5.811390870594996e-06	3.808594e+00	2.881257e+00
5.832640870594996e-06	3.808594e+00	2.883618e+00
5.840140870594996e-06	3.808594e+00	2.884453e+00
5.890140870594996e-06	3.808594e+00	2.890021e+00
5.900140870594996e-06	3.813477e+00	2.891136e+00
5.910140870594996e-06	3.823242e+00	2.892251e+00
5.920140870594995e-06	3.828125e+00	2.893367e+00
6.000140870594995e-06	3.828125e+00	2.902314e+00
6.010140870594995e-06	3.833008e+00	2.903435e+00
6.020140870594994e-06	3.842773e+00	2.904558e+00
6.030140870594994e-06	3.847656e+00	2.905681e+00
6.042105156309280e-06	3.847656e+00	2.907027e+00
6.054069442023565e-06	3.847656e+00	2.908374e+00
6.066033727737851e-06	3.847656e+00	2.909722e+00
6.077998013452137e-06	3.847656e+00	2.911071e+00
6.089962299166423e-06	3.847656e+00	2.912421e+00
6.101926584880708e-06	3.847656e+00	2.913771e+00
6.113890870594994e-06	3.847656e+00	2.915123e+00
6.118890870594994e-06	3.850911e+00	2.915689e+00
6.128890870594994e-06	3.862305e+00	2.916823e+00
6.138890870594994e-06	3.867188e+00	2.917955e+00
6.150319442023566e-06	3.867188e+00	2.919254e+00
6.161748013452136e-06	3.867188e+00	2.920553e+00
6.173176584880708e-06	3.867188e+00	2.921854e+00
6.184605156309279e-06	3.867188e+00	2.923156e+00
6.196033727737851e-06	3.867188e+00	2.924459e+00
6.207462299166422e-06	3.867188e+00	2.925763e+00
6.218890870594993e-06	3.867188e+00	2.927069e+00
6.228890870594993e-06	3.872070e+00	2.928215e+00
6.238890870594993e-06	3.881836e+00	2.929362e+00
6.248890870594993e-06	3.886719e+00	2.930508e+00
6.328890870594992e-06	3.886719e+00	2.939737e+00
6.338890870594992e-06	3.891602e+00	2.940896e+00
6.348890870594992e-06	3.901367e+00	2.942056e+00
6.358890870594992e-06	3.906250e+00	2.943217e+00
6.366212299166421e-06	3.906250e+00	2.944068e+00
6.373533727737849e-06	3.906250e+00	2.944920e+00
6.380855156309278e-06	3.906250e+00	2.945773e+00
6.388176584880706e-06	3.906250e+00	2.946627e+00
6.395498013452135e-06	3.906250e+00	2.947481e+00
6.402819442023563e-06	3.906250e+00	2.948337e+00
6.410140870594992e-06	3.906250e+00	2.949193e+00
6.412640870594992e-06	3.906250e+00	2.949485e+00
6.418890870594992e-06	3.905125e+00	2.950217e+00
6.425140870594992e-06	3.905073e+00	2.950949e+00
6.431390870594992e-06	3.906093e+00	2.951682e+00
6.437640870594992e-06	3.908185e+00	2.952415e+00
6.443890870594992e-06	3.911351e+00	2.953148e+00
6.450140870594992e-06	3.915588e+00	2.953882e+00
6.456390870594992e-06	3.920898e+00	2.954616e+00
6.466390870594992e-06	3.925781e+00	2.955791e+00
6.479069442023564e-06	3.925781e+00	2.957282e+00
6.491748013452135e-06	3.925781e+00	2.958775e+00
6.504426584880707e-06	3.925781e+00	2.960269e+00
6.517105156309277e-06	3.925781e+00	2.961766e+00
6.529783727737849e-06	3.925781e+00	2.963265e+00
6.542462299166420e-06	3.925781e+00	2.964766e+00
6.555140870594992e-06	3.925781e+00	2.966269e+00
6.565140870594992e-06	3.930664e+00	2.967452e+00
6.575140870594992e-06	3.940430e+00	2.968637e+00
6.585140870594992e-06	3.945312e+00	2.969823e+00
6.665140870594991e-06	3.945312e+00	2.979342e+00
6.675140870594991e-06	3.950195e+00	2.980534e+00
6.685140870594991e-06	3.959961e+00	2.981726e+00
