time	V(input_signal)	V(v_out)
0.000000000000000e+00	0.000000e+00	7.836371e-07
5.859375484806861e-11	2.929688e-07	7.842598e-07
2.343750193922745e-10	1.171875e-06	7.841062e-07
4.687500387845489e-10	2.343750e-06	7.826870e-07
9.375000775690978e-10	4.687500e-06	7.817059e-07
3.750000310276391e-09	1.875000e-05	7.913001e-07
7.500000620552782e-09	3.750000e-05	7.959448e-07
1.500000124110556e-08	7.500000e-05	7.856411e-07
3.000000248221113e-08	1.500000e-04	7.788144e-07
6.000000496442226e-08	3.000000e-04	7.874617e-07
1.200000099288445e-07	6.000000e-04	7.860344e-07
2.400000198576890e-07	1.200000e-03	7.807749e-07
4.800000397153781e-07	2.400000e-03	7.852558e-07
9.600000794307562e-07	4.800000e-03	7.827656e-07
1.920000158861512e-06	9.600000e-03	7.829110e-07
2.146246429165965e-06	1.073123e-02	7.839443e-07
2.375156663247662e-06	1.187578e-02	7.896915e-07
2.523328728017559e-06	1.261664e-02	7.871416e-07
2.687016981862947e-06	1.343509e-02	7.820760e-07
3.014393489553725e-06	1.507197e-02	7.861494e-07
3.669146504935281e-06	1.834573e-02	7.917478e-07
4.978652535698392e-06	2.489326e-02	7.995578e-07
5.776353066425569e-06	2.888177e-02	8.044383e-07
6.598167881730015e-06	3.299084e-02	8.124758e-07
7.356771128575330e-06	3.678386e-02	8.199339e-07
8.091338522001754e-06	4.045669e-02	8.281148e-07
8.935307252859643e-06	4.467653e-02	8.414949e-07
9.917926837721178e-06	4.958963e-02	8.565526e-07
1.091945852564931e-05	5.459729e-02	8.743615e-07
1.159670735643452e-05	5.798354e-02	8.877606e-07
1.256616235341072e-05	6.283081e-02	9.066341e-07
1.290801545020674e-05	6.454008e-02	9.130321e-07
1.359172164379879e-05	6.795861e-02	9.323504e-07
1.383443351495089e-05	6.917217e-02	9.312560e-07
1.393831970264701e-05	6.969160e-02	9.251275e-07
1.400370305533560e-05	7.001851e-02	9.326168e-07
1.404340174606596e-05	7.021701e-02	9.319979e-07
1.405749313638325e-05	7.028747e-02	9.287712e-07
1.406125391322154e-05	7.030627e-02	9.277561e-07
1.406309955216924e-05	7.031550e-02	9.297744e-07
1.406387136367355e-05	7.031935e-02	9.344374e-07
1.406423493041134e-05	7.032117e-02	9.368155e-07
1.406460389357630e-05	7.032302e-02	9.356767e-07
1.406550237950887e-05	7.032751e-02	9.230889e-07
1.406601346638748e-05	7.033007e-02	9.136740e-07
1.406675557507211e-05	7.033378e-02	9.027895e-07
1.406780681977742e-05	7.033903e-02	8.912227e-07
1.406953648177126e-05	7.034768e-02	8.687081e-07
1.407280823066362e-05	7.036404e-02	8.230424e-07
1.407838153097159e-05	7.039191e-02	7.724195e-07
1.408419159008259e-05	7.042096e-02	7.863969e-07
1.409216049382300e-05	7.046080e-02	9.140875e-07
1.410156504192514e-05	7.050782e-02	1.159417e-06
1.411494069311778e-05	7.057470e-02	1.628419e-06
1.413195621351287e-05	7.065978e-02	2.392496e-06
1.415655243497335e-05	7.078277e-02	3.720588e-06
1.419026709715262e-05	7.095134e-02	5.755745e-06
1.424272432916365e-05	7.121362e-02	9.096530e-06
1.430873757063606e-05	7.154369e-02	1.322581e-05
1.439338973012168e-05	7.196695e-02	1.780109e-05
1.449192443084166e-05	7.245962e-02	2.165862e-05
1.458148183038584e-05	7.290741e-02	2.352716e-05
1.466436350559418e-05	7.332182e-02	2.376096e-05
1.474476422179301e-05	7.372382e-02	2.287339e-05
1.483366430531109e-05	7.416832e-02	2.112700e-05
1.500688037026457e-05	7.503440e-02	1.718110e-05
1.507410865371234e-05	7.537054e-02	1.590820e-05
1.513103794289123e-05	7.565519e-02	1.510529e-05
1.519638875988341e-05	7.598194e-02	1.453052e-05
1.526785576107596e-05	7.633928e-02	1.426531e-05
1.534523611432966e-05	7.672618e-02	1.431157e-05
1.543514279106776e-05	7.717571e-02	1.463935e-05
1.554358012433427e-05	7.771790e-02	1.518682e-05
1.568342603903615e-05	7.841713e-02	1.576908e-05
1.584529047712439e-05	7.922645e-02	1.601816e-05
1.596646935294385e-05	7.983235e-02	1.585173e-05
1.621932981341893e-05	8.109665e-02	1.494713e-05
1.638433192001399e-05	8.192166e-02	1.441831e-05
1.651696343428431e-05	8.258482e-02	1.414669e-05
1.699753739118824e-05	8.498769e-02	1.375873e-05
1.718813085951980e-05	8.594065e-02	1.352769e-05
1.755214501626600e-05	8.776072e-02	1.295557e-05
1.757279988403431e-05	8.786400e-02	1.291382e-05
1.759052300709975e-05	8.795261e-02	1.288886e-05
1.760617594249289e-05	8.803088e-02	1.293571e-05
1.762281973786561e-05	8.811410e-02	1.311840e-05
1.763970537399778e-05	8.819853e-02	1.345030e-05
1.766033077813711e-05	8.830165e-02	1.400388e-05
1.768923966390954e-05	8.844620e-02	1.489194e-05
1.780288621875754e-05	8.901443e-02	1.854841e-05
1.789585297832368e-05	8.947927e-02	2.100979e-05
1.800006851385256e-05	9.000034e-02	2.279535e-05
1.808655315389550e-05	9.043276e-02	2.334323e-05
1.816533128865362e-05	9.082665e-02	2.308517e-05
1.824547639378569e-05	9.122738e-02	2.230037e-05
1.841716809529674e-05	9.208584e-02	2.014547e-05
1.854206657290782e-05	9.271033e-02	1.889323e-05
1.862578298462416e-05	9.312891e-02	1.835804e-05
1.870487466984976e-05	9.352437e-02	1.815568e-05
1.879348937779084e-05	9.396745e-02	1.817436e-05
1.900476308446870e-05	9.502382e-02	1.851626e-05
1.918086381487327e-05	9.590432e-02	1.861459e-05
1.931083128225424e-05	9.655416e-02	1.848069e-05
1.969763916081189e-05	9.848820e-02	1.747282e-05
1.998663381515857e-05	9.993317e-02	1.703736e-05
2.057366928068641e-05	1.028683e-01	1.633559e-05
2.116313461892799e-05	1.058157e-01	1.554796e-05
2.144293929323969e-05	1.072147e-01	1.527113e-05
2.146161226668837e-05	1.073081e-01	1.523590e-05
2.147493981569645e-05	1.073747e-01	1.520572e-05
2.148606314072632e-05	1.074303e-01	1.519884e-05
2.149528141310418e-05	1.074764e-01	1.519442e-05
2.150577142750830e-05	1.075289e-01	1.523458e-05
2.151848319638115e-05	1.075924e-01	1.542193e-05
2.153261338762496e-05	1.076631e-01	1.573452e-05
2.155042967032420e-05	1.077522e-01	1.622574e-05
2.157654838950201e-05	1.078827e-01	1.711766e-05
2.166521584428755e-05	1.083261e-01	2.043245e-05
2.173799191893298e-05	1.086900e-01	2.278679e-05
2.182633511904036e-05	1.091317e-01	2.486808e-05
2.190331553837270e-05	1.095166e-01	2.584010e-05
2.197344157869755e-05	1.098672e-01	2.593426e-05
2.204041042377972e-05	1.102021e-01	2.542740e-05
2.211575710499275e-05	1.105788e-01	2.451967e-05
2.227849215259299e-05	1.113925e-01	2.233269e-05
2.235077377387791e-05	1.117539e-01	2.159156e-05
2.240406103562275e-05	1.120203e-01	2.122703e-05
2.247496351087194e-05	1.123748e-01	2.096785e-05
2.254368392048929e-05	1.127184e-01	2.092962e-05
2.283517039103108e-05	1.141758e-01	2.150218e-05
2.298641870790331e-05	1.149321e-01	2.155596e-05
2.310354254373783e-05	1.155177e-01	2.139445e-05
2.332777277595904e-05	1.166389e-01	2.080644e-05
2.346311697747533e-05	1.173156e-01	2.054983e-05
2.361781139886307e-05	1.180891e-01	2.034093e-05
2.391981196154655e-05	1.195991e-01	2.012506e-05
2.423018002391522e-05	1.211509e-01	1.979798e-05
2.441677645664074e-05	1.220839e-01	1.957937e-05
2.486758784385640e-05	1.243379e-01	1.916038e-05
2.520916234959628e-05	1.260458e-01	1.889770e-05
2.535763084250902e-05	1.267882e-01	1.879121e-05
2.539491965273650e-05	1.269746e-01	1.890821e-05
2.542045501665629e-05	1.271023e-01	1.926398e-05
2.544604382883825e-05	1.272302e-01	2.000085e-05
2.546825733796208e-05	1.273413e-01	2.086380e-05
2.553780570369823e-05	1.276890e-01	2.372377e-05
2.560721459916981e-05	1.280361e-01	2.631046e-05
2.568554510115803e-05	1.284277e-01	2.855481e-05
2.575951702257373e-05	1.287976e-01	2.973253e-05
2.582316418508117e-05	1.291158e-01	2.998587e-05
2.588910780633700e-05	1.294455e-01	2.963041e-05
2.596082185389426e-05	1.298041e-01	2.875059e-05
2.609274062005928e-05	1.304637e-01	2.683211e-05
2.614890490939013e-05	1.307445e-01	2.615511e-05
2.620595292842589e-05	1.310298e-01	2.565321e-05
2.624909976632770e-05	1.312455e-01	2.547251e-05
2.630662888353010e-05	1.315331e-01	2.533806e-05
2.638457763013954e-05	1.319229e-01	2.535341e-05
2.647209681171937e-05	1.323605e-01	2.559768e-05
2.655897430190391e-05	1.327949e-01	2.592982e-05
2.666533756139544e-05	1.333267e-01	2.622459e-05
2.676214573231767e-05	1.338107e-01	2.630221e-05
2.685912837393892e-05	1.342956e-01	2.622917e-05
2.709418773407294e-05	1.354709e-01	2.581347e-05
2.723915691466068e-05	1.361958e-01	2.563177e-05
2.749799671931637e-05	1.374900e-01	2.553348e-05
2.765986686560727e-05	1.382993e-01	2.552726e-05
2.793404876096515e-05	1.396702e-01	2.548247e-05
2.827854660034034e-05	1.413927e-01	2.533277e-05
2.835937774396410e-05	1.417969e-01	2.532503e-05
2.844020888758786e-05	1.422010e-01	2.531936e-05
2.852104003121162e-05	1.426052e-01	2.531577e-05
2.860187117483537e-05	1.430094e-01	2.531425e-05
2.868270231845913e-05	1.434135e-01	2.531480e-05
2.876353346208289e-05	1.438177e-01	2.531743e-05
2.884436460570665e-05	1.442218e-01	2.532214e-05
2.894450606382907e-05	1.447225e-01	2.525579e-05
2.906449422994796e-05	1.453225e-01	2.534784e-05
2.909757499032879e-05	1.454879e-01	2.535791e-05
2.917124278288198e-05	1.458562e-01	2.524096e-05
2.921628041363119e-05	1.460814e-01	2.534383e-05
2.927086143392800e-05	1.463543e-01	2.534777e-05
2.929358686969719e-05	1.464679e-01	2.530577e-05
2.930868996016278e-05	1.465434e-01	2.524526e-05
2.931949237500931e-05	1.465975e-01	2.527106e-05
2.933150312717348e-05	1.466575e-01	2.546995e-05
2.934402109671131e-05	1.467201e-01	2.581916e-05
2.935918708725308e-05	1.467959e-01	2.635770e-05
2.937822661111960e-05	1.468911e-01	2.711157e-05
2.940739969663094e-05	1.470370e-01	2.839038e-05
2.944688952318053e-05	1.472345e-01	3.026946e-05
2.950906510021724e-05	1.475453e-01	3.303023e-05
2.957750436205460e-05	1.478875e-01	3.540188e-05
2.964460189345232e-05	1.482230e-01	3.705272e-05
2.965525508965370e-05	1.482763e-01	3.721263e-05
2.967656148205647e-05	1.483828e-01	3.736556e-05
2.971917426686200e-05	1.485959e-01	3.744099e-05
2.978080090110807e-05	1.489040e-01	3.714055e-05
2.984532846113541e-05	1.492266e-01	3.642540e-05
2.992053059130431e-05	1.496027e-01	3.527101e-05
2.996001422763687e-05	1.498001e-01	3.478667e-05
3.001265907608029e-05	1.500633e-01	3.415159e-05
3.008061896092987e-05	1.504031e-01	3.355768e-05
3.012672457190580e-05	1.506336e-01	3.338740e-05
3.018072340948578e-05	1.509036e-01	3.334412e-05
3.023782625915768e-05	1.511891e-01	3.344313e-05
3.031119597229623e-05	1.515560e-01	3.378367e-05
3.039744792999634e-05	1.519872e-01	3.426700e-05
3.049300407064627e-05	1.524650e-01	3.473353e-05
3.059706548616427e-05	1.529853e-01	3.505421e-05
3.068585715698817e-05	1.534293e-01	3.513628e-05
3.088299951833401e-05	1.544150e-01	3.506675e-05
3.109975677907279e-05	1.554988e-01	3.512753e-05
3.146618340473647e-05	1.573309e-01	3.571575e-05
3.184890988255436e-05	1.592446e-01	3.623697e-05
3.204150975791149e-05	1.602076e-01	3.654426e-05
3.231513250548300e-05	1.615757e-01	3.695886e-05
3.257549088175373e-05	1.628775e-01	3.739574e-05
3.274239763111473e-05	1.637120e-01	3.772250e-05
3.299794866337353e-05	1.649897e-01	3.817955e-05
3.316898305634277e-05	1.658449e-01	3.848187e-05
3.320280927729223e-05	1.660140e-01	3.854032e-05
3.322483948860333e-05	1.661242e-01	3.866074e-05
3.323995451243077e-05	1.661998e-01	3.887206e-05
3.325593748679273e-05	1.662797e-01	3.925206e-05
3.327122918996540e-05	1.663561e-01	3.980583e-05
3.329006729071951e-05	1.664503e-01	4.068559e-05
3.331548869792531e-05	1.665774e-01	4.199253e-05
3.335509028640315e-05	1.667755e-01	4.412060e-05
3.341098037100854e-05	1.670549e-01	4.695348e-05
3.348341128552169e-05	1.674170e-01	4.987235e-05
3.355068685409291e-05	1.677534e-01	5.162009e-05
3.361080728247383e-05	1.680540e-01	5.225249e-05
3.366661765292835e-05	1.683331e-01	5.214117e-05
3.373041586476547e-05	1.686521e-01	5.158469e-05
3.378901110005787e-05	1.689451e-01	5.087472e-05
3.386409617845746e-05	1.693205e-01	4.997184e-05
3.393924767707351e-05	1.696962e-01	4.939910e-05
3.399089575349071e-05	1.699545e-01	4.926256e-05
3.405374462028188e-05	1.702687e-01	4.939292e-05
3.411608560116638e-05	1.705804e-01	4.979567e-05
3.426698601957200e-05	1.713349e-01	5.111765e-05
3.441308874750469e-05	1.720654e-01	5.221173e-05
3.452097023288556e-05	1.726048e-01	5.281594e-05
3.462418086268494e-05	1.731209e-01	5.320414e-05
3.474175043883558e-05	1.737088e-01	5.352762e-05
3.485659622419263e-05	1.742830e-01	5.390819e-05
3.496620178611073e-05	1.748310e-01	5.438130e-05
3.525518685951444e-05	1.762759e-01	5.591275e-05
3.544305391964616e-05	1.772153e-01	5.690668e-05
3.593343364588765e-05	1.796672e-01	5.940923e-05
3.609117547285303e-05	1.804559e-01	6.025246e-05
3.661474816046764e-05	1.830737e-01	6.320143e-05
3.687978862567514e-05	1.843989e-01	6.474968e-05
3.704869583431047e-05	1.852435e-01	6.561480e-05
3.707954720064208e-05	1.853977e-01	6.581855e-05
3.709930004578864e-05	1.854965e-01	6.598349e-05
3.711413311819937e-05	1.855707e-01	6.608955e-05
3.712595518226514e-05	1.856298e-01	6.620565e-05
3.713903001683643e-05	1.856952e-01	6.648240e-05
3.715262378957247e-05	1.857631e-01	6.700631e-05
3.716931465327674e-05	1.858466e-01	6.786034e-05
3.718998917191432e-05	1.859500e-01	6.905183e-05
3.727229380682329e-05	1.863615e-01	7.445810e-05
3.728879134200393e-05	1.864440e-01	7.542249e-05
3.732178641236522e-05	1.866089e-01	7.730986e-05
3.737598144680950e-05	1.868799e-01	7.981139e-05
3.743104230494975e-05	1.871552e-01	8.155216e-05
3.748702919566755e-05	1.874352e-01	8.251528e-05
3.754523510315051e-05	1.877262e-01	8.282915e-05
3.760762080675048e-05	1.880381e-01	8.261149e-05
3.766727587445013e-05	1.883364e-01	8.215032e-05
3.772753202093952e-05	1.886377e-01	8.178116e-05
3.777981092459595e-05	1.888991e-01	8.166896e-05
3.783447391854813e-05	1.891724e-01	8.177912e-05
3.789526129341873e-05	1.894763e-01	8.225754e-05
3.796234421311552e-05	1.898117e-01	8.310119e-05
3.811295397897768e-05	1.905648e-01	8.552495e-05
3.822620351313766e-05	1.911310e-01	8.728594e-05
3.831590064536912e-05	1.915795e-01	8.849912e-05
3.841559660581850e-05	1.920780e-01	8.965558e-05
3.852936048101415e-05	1.926468e-01	9.077548e-05
3.864000445946465e-05	1.932000e-01	9.193210e-05
3.878010324276311e-05	1.939005e-01	9.360441e-05
3.880160978285929e-05	1.940081e-01	9.390160e-05
3.890283381146742e-05	1.945142e-01	9.518027e-05
3.900405784007555e-05	1.950203e-01	9.646794e-05
3.910528186868368e-05	1.955264e-01	9.776461e-05
3.920650589729181e-05	1.960325e-01	9.907029e-05
3.930772992589994e-05	1.965386e-01	1.003850e-04
3.940895395450807e-05	1.970448e-01	1.017087e-04
3.951017798311619e-05	1.975509e-01	1.030413e-04
3.966721520284452e-05	1.983361e-01	1.050584e-04
3.997609905169467e-05	1.998805e-01	1.092956e-04
4.026829176722642e-05	2.013415e-01	1.132448e-04
4.078459734460342e-05	2.039230e-01	1.205391e-04
4.100018050051240e-05	2.050009e-01	1.238782e-04
4.106081469559968e-05	2.053041e-01	1.255258e-04
4.110686287395354e-05	2.055343e-01	1.278796e-04
4.114113960348516e-05	2.057057e-01	1.303321e-04
4.117426634399963e-05	2.058713e-01	1.329901e-04
4.120876123622505e-05	2.060438e-01	1.357286e-04
4.127775102067588e-05	2.063888e-01	1.405560e-04
4.134166358318392e-05	2.067083e-01	1.440510e-04
4.139792298232686e-05	2.069896e-01	1.461857e-04
4.146065804241104e-05	2.073033e-01	1.477481e-04
4.155422299614091e-05	2.077711e-01	1.482289e-04
4.162075988083975e-05	2.081038e-01	1.487131e-04
4.167351404612393e-05	2.083676e-01	1.491952e-04
4.173544670586347e-05	2.086772e-01	1.500600e-04
4.178740919045346e-05	2.089370e-01	1.511538e-04
4.184409122719561e-05	2.092205e-01	1.526878e-04
4.185648102734542e-05	2.092824e-01	1.531039e-04
4.186887082749524e-05	2.093443e-01	1.535053e-04
4.188126062764506e-05	2.094063e-01	1.538920e-04
4.189365042779487e-05	2.094682e-01	1.542638e-04
4.190604022794469e-05	2.095302e-01	1.546210e-04
4.191843002809450e-05	2.095921e-01	1.549633e-04
4.193081982824432e-05	2.096541e-01	1.552909e-04
4.198918478870299e-05	2.099459e-01	1.572711e-04
4.206597913577281e-05	2.103299e-01	1.596886e-04
4.214751030633082e-05	2.107376e-01	1.621272e-04
4.225004720108353e-05	2.112502e-01	1.650616e-04
4.247890875694692e-05	2.123946e-01	1.709968e-04
4.258643669878167e-05	2.129322e-01	1.738727e-04
4.274361535461094e-05	2.137181e-01	1.783795e-04
4.290079401044019e-05	2.145040e-01	1.829301e-04
4.305797266626946e-05	2.152899e-01	1.875247e-04
4.321515132209872e-05	2.160758e-01	1.921631e-04
4.337232997792799e-05	2.168616e-01	1.968454e-04
4.352950863375725e-05	2.176475e-01	2.015716e-04
4.368668728958651e-05	2.184334e-01	2.063417e-04
4.414322564446650e-05	2.207161e-01	2.204832e-04
4.425197714124709e-05	2.212599e-01	2.238401e-04
4.436072863802767e-05	2.218036e-01	2.272252e-04
4.446948013480825e-05	2.223474e-01	2.306386e-04
4.457823163158884e-05	2.228912e-01	2.340801e-04
4.468698312836942e-05	2.234349e-01	2.375500e-04
4.479573462515001e-05	2.239787e-01	2.410480e-04
4.490448612193059e-05	2.245224e-01	2.445744e-04
4.492048575254536e-05	2.246024e-01	2.450811e-04
4.493430484193394e-05	2.246715e-01	2.455177e-04
4.494648113051642e-05	2.247324e-01	2.460185e-04
4.495969166350239e-05	2.247985e-01	2.467534e-04
4.497347719591792e-05	2.248674e-01	2.477313e-04
4.499064964077224e-05	2.249532e-01	2.492713e-04
4.501224043360964e-05	2.250612e-01	2.515462e-04
4.508602899339790e-05	2.254301e-01	2.601353e-04
4.515638379599866e-05	2.257819e-01	2.679642e-04
4.522992818003947e-05	2.261496e-01	2.749332e-04
4.528671722927037e-05	2.264336e-01	2.791354e-04
4.533774075024723e-05	2.266887e-01	2.818927e-04
4.538792062484923e-05	2.269396e-01	2.838820e-04
4.544191312429207e-05	2.272096e-01	2.856882e-04
4.551357436135132e-05	2.275679e-01	2.880915e-04
4.558766831336698e-05	2.279383e-01	2.908768e-04
4.563193153880905e-05	2.281597e-01	2.928834e-04
4.567763637869327e-05	2.283882e-01	2.953076e-04
4.573065270599390e-05	2.286533e-01	2.984221e-04
4.587292506692456e-05	2.293646e-01	3.075800e-04
4.598734771530894e-05	2.299367e-01	3.150045e-04
4.607683889459323e-05	2.303842e-01	3.205939e-04
4.624247194681473e-05	2.312124e-01	3.302296e-04
4.633738803829835e-05	2.316869e-01	3.357316e-04
4.645574580845639e-05	2.322787e-01	3.427539e-04
4.672115670163283e-05	2.336058e-01	3.593014e-04
4.699281026004326e-05	2.349641e-01	3.765771e-04
4.734386073617797e-05	2.367193e-01	3.990641e-04
4.790307839258640e-05	2.395154e-01	4.360178e-04
4.836758743931303e-05	2.418379e-01	4.674280e-04
4.867867145975371e-05	2.433934e-01	4.887177e-04
4.878361923352304e-05	2.439181e-01	4.960513e-04
4.879596397524255e-05	2.439798e-01	4.968939e-04
4.882065345868156e-05	2.441033e-01	4.985476e-04
4.883615388002882e-05	2.441808e-01	4.996472e-04
4.884956165445026e-05	2.442478e-01	5.006847e-04
4.886416446715695e-05	2.443208e-01	5.021117e-04
4.887853870966019e-05	2.443927e-01	5.038725e-04
4.889660534847687e-05	2.444830e-01	5.064475e-04
4.891960720267734e-05	2.445980e-01	5.102474e-04
4.895555324622190e-05	2.447778e-01	5.167854e-04
4.899922560761679e-05	2.449961e-01	5.250343e-04
4.907366186735201e-05	2.453683e-01	5.388235e-04
4.913888262641947e-05	2.456944e-01	5.498025e-04
4.919066617030336e-05	2.459533e-01	5.573290e-04
4.924101289763490e-05	2.462051e-01	5.634671e-04
4.929045671910170e-05	2.464523e-01	5.685873e-04
4.939651702997976e-05	2.469826e-01	5.781593e-04
4.945067786392432e-05	2.472534e-01	5.830642e-04
4.949172734991369e-05	2.474586e-01	5.870317e-04
4.954008324071628e-05	2.477004e-01	5.921259e-04
4.959506249952123e-05	2.479753e-01	5.984445e-04
4.965285039586502e-05	2.482643e-01	6.055573e-04
4.981430646563522e-05	2.490715e-01	6.270472e-04
4.992489027078972e-05	2.496244e-01	6.417271e-04
5.000332629771816e-05	2.500166e-01	6.518313e-04
5.009978687859467e-05	2.504989e-01	6.638259e-04
5.022601107431223e-05	2.511300e-01	6.791199e-04
5.027748049008218e-05	2.513874e-01	6.854762e-04
5.036909168087867e-05	2.518454e-01	6.971539e-04
5.055384567158161e-05	2.527692e-01	7.215316e-04
5.081022742459129e-05	2.540511e-01	7.557077e-04
5.101513781742664e-05	2.550757e-01	7.828111e-04
5.118466450796993e-05	2.559233e-01	8.057920e-04
5.135419119851322e-05	2.567709e-01	8.289254e-04
5.152371788905650e-05	2.576186e-01	8.522114e-04
5.169324457959979e-05	2.584662e-01	8.756499e-04
5.186277127014307e-05	2.593138e-01	8.992409e-04
5.203229796068636e-05	2.601615e-01	9.229845e-04
5.220182465122965e-05	2.610091e-01	9.468806e-04
5.242852075827559e-05	2.621426e-01	9.790593e-04
5.272082767487157e-05	2.636041e-01	1.021474e-03
5.279482710264775e-05	2.639741e-01	1.034296e-03
5.285602284839516e-05	2.642801e-01	1.048332e-03
5.289225290049520e-05	2.644613e-01	1.058758e-03
5.292967752634563e-05	2.646484e-01	1.070805e-03
